# GHz S RI R 50
!
+2.500000000000000e-001   +5.933389178500000e-002 -2.736221011400000e-002   +0.000000000000000e+000 +0.000000000000000e+000   +0.000000000000000e+000 +0.000000000000000e+000   +6.025859836800000e-002 -1.373403982500000e-002   
+5.000000000000000e-001   +7.638986353800000e-002 -3.473667085200000e-002   +0.000000000000000e+000 +0.000000000000000e+000   +0.000000000000000e+000 +0.000000000000000e+000   +7.913905621200000e-002 -5.100345224500000e-003   
+7.500000000000000e-001   +6.608429081900000e-002 -6.584298926300000e-002   +0.000000000000000e+000 +0.000000000000000e+000   +0.000000000000000e+000 +0.000000000000000e+000   +9.276180598400000e-002 -3.170886530500000e-002   
+1.000000000000000e+000   +2.325300601400000e-002 -6.551354030100000e-002   +0.000000000000000e+000 +0.000000000000000e+000   +0.000000000000000e+000 +0.000000000000000e+000   +7.435925735000000e-002 -4.699502408200000e-002   
+1.250000000000000e+000   -1.175942376900000e-002 -3.129291534800000e-002   +0.000000000000000e+000 +0.000000000000000e+000   +0.000000000000000e+000 +0.000000000000000e+000   +3.727195568300000e-002 -4.314434925600000e-002   
+1.500000000000000e+000   -7.996374495000000e-003 -6.131473086900000e-005   +0.000000000000000e+000 +0.000000000000000e+000   +0.000000000000000e+000 +0.000000000000000e+000   +1.285216363100000e-002 -1.346016930900000e-002   
+1.750000000000000e+000   +7.275849154200000e-003 -3.203130046900000e-003   +0.000000000000000e+000 +0.000000000000000e+000   +0.000000000000000e+000 +0.000000000000000e+000   +8.335337479100000e-003 +8.559766543900000e-003   
+2.000000000000000e+000   +1.039467117500000e-002 -1.937237677900000e-002   +0.000000000000000e+000 +0.000000000000000e+000   +0.000000000000000e+000 +0.000000000000000e+000   +1.467715191900000e-002 +8.378603464700000e-003   
+2.250000000000000e+000   -1.568452010300000e-003 -1.320560003900000e-002   +0.000000000000000e+000 +0.000000000000000e+000   +0.000000000000000e+000 +0.000000000000000e+000   +1.167288698200000e-002 -7.363434318700000e-003   
+2.500000000000000e+000   +5.578846447700000e-004 +1.575926977400000e-002   +0.000000000000000e+000 +0.000000000000000e+000   +0.000000000000000e+000 +0.000000000000000e+000   -2.742362957500000e-003 -1.902742690200000e-002   
+2.750000000000000e+000   +6.666202419100000e-002 +7.078959635500000e-003   +0.000000000000000e+000 +0.000000000000000e+000   +0.000000000000000e+000 +0.000000000000000e+000   -5.520851687500000e-002 +3.560812612900000e-002   
+3.000000000000000e+000   +8.936798559200000e-002 -5.592741163300000e-002   +0.000000000000000e+000 +0.000000000000000e+000   +0.000000000000000e+000 +0.000000000000000e+000   -1.102035468800000e-001 +2.230138303900000e-002   
+3.250000000000000e+000   +3.234693359700000e-002 -8.669040314000000e-002   +0.000000000000000e+000 +0.000000000000000e+000   +0.000000000000000e+000 +0.000000000000000e+000   -1.177824252900000e-001 -1.430885575600000e-002   
+3.500000000000000e+000   +4.606204014400000e-003 -2.286379569500000e-002   +0.000000000000000e+000 +0.000000000000000e+000   +0.000000000000000e+000 +0.000000000000000e+000   -5.162343976900000e-002 -1.385927302900000e-002   
+3.750000000000000e+000   +5.141325926200000e-002 -5.099728501700000e-003   +0.000000000000000e+000 +0.000000000000000e+000   +0.000000000000000e+000 +0.000000000000000e+000   +3.448685535400000e-002 +6.646200665700000e-003   
+4.000000000000000e+000   +4.696261226500000e-002 -2.861344900700000e-002   +0.000000000000000e+000 +0.000000000000000e+000   +0.000000000000000e+000 +0.000000000000000e+000   +2.982771202400000e-002 +3.369554008600000e-002   
+4.250000000000000e+000   +3.827012928700000e-002 +1.285189786100000e-002   +0.000000000000000e+000 +0.000000000000000e+000   +0.000000000000000e+000 +0.000000000000000e+000   -4.547229170800000e-004 +2.501292239100000e-002   
+4.500000000000000e+000   +7.289442669600000e-002 +2.907884411200000e-002   +0.000000000000000e+000 +0.000000000000000e+000   +0.000000000000000e+000 +0.000000000000000e+000   -5.292289443500000e-002 +1.993267266700000e-003   
+4.750000000000000e+000   +9.678132680400000e-002 -2.216420651700000e-002   +0.000000000000000e+000 +0.000000000000000e+000   +0.000000000000000e+000 +0.000000000000000e+000   -4.725423824200000e-002 -2.579869643500000e-002   
+5.000000000000000e+000   +8.232247824400000e-003 -2.562628116100000e-002   +0.000000000000000e+000 +0.000000000000000e+000   +0.000000000000000e+000 +0.000000000000000e+000   -1.512765295600000e-002 +1.433669815200000e-002   
+5.250000000000000e+000   -2.949995675100000e-002 +3.854472569200000e-002   +0.000000000000000e+000 +0.000000000000000e+000   +0.000000000000000e+000 +0.000000000000000e+000   -3.667768335300000e-002 +2.844024966700000e-002   
+5.500000000000000e+000   +1.474788371100000e-002 +5.873702925500000e-002   +0.000000000000000e+000 +0.000000000000000e+000   +0.000000000000000e+000 +0.000000000000000e+000   -4.051311293500000e-002 +6.364193375300000e-002   
+5.750000000000000e+000   +6.965078080300000e-003 -1.842254876200000e-002   +0.000000000000000e+000 +0.000000000000000e+000   +0.000000000000000e+000 +0.000000000000000e+000   -1.535923964600000e-002 +3.312078039000000e-003   
+6.000000000000000e+000   -8.021967091800000e-002 -3.335671933900000e-002   +0.000000000000000e+000 +0.000000000000000e+000   +0.000000000000000e+000 +0.000000000000000e+000   +5.882547796500000e-002 -4.160608651100000e-002   
+6.250000000000000e+000   -1.076159038700000e-001 +3.779751050700000e-002   +0.000000000000000e+000 +0.000000000000000e+000   +0.000000000000000e+000 +0.000000000000000e+000   +1.011235518600000e-001 -3.886904499300000e-002   
+6.500000000000000e+000   -3.786245828500000e-002 +3.775701403500000e-002   +0.000000000000000e+000 +0.000000000000000e+000   +0.000000000000000e+000 +0.000000000000000e+000   +9.404115369900000e-002 -1.318390835200000e-002   
+6.750000000000000e+000   -5.571439054100000e-002 -3.096767408200000e-002   +0.000000000000000e+000 +0.000000000000000e+000   +0.000000000000000e+000 +0.000000000000000e+000   +3.959247878100000e-002 -5.889593048100000e-003   
+7.000000000000000e+000   -1.127554130900000e-001 +2.592790108400000e-002   +0.000000000000000e+000 +0.000000000000000e+000   +0.000000000000000e+000 +0.000000000000000e+000   -1.566180642400000e-004 +1.689486978800000e-002   
+7.250000000000000e+000   -9.119229373200000e-002 +8.562481559800000e-002   +0.000000000000000e+000 +0.000000000000000e+000   +0.000000000000000e+000 +0.000000000000000e+000   -2.248394444600000e-002 +3.919368182700000e-002   
+7.500000000000000e+000   -1.361431879200000e-002 +6.016788137600000e-002   +0.000000000000000e+000 +0.000000000000000e+000   +0.000000000000000e+000 +0.000000000000000e+000   -6.715262873200000e-002 +3.943001361400000e-002   
+7.750000000000000e+000   -3.433580867300000e-002 -2.956911496100000e-002   +0.000000000000000e+000 +0.000000000000000e+000   +0.000000000000000e+000 +0.000000000000000e+000   -7.080152454200000e-002 -2.417317690100000e-002   
+8.000000000000000e+000   -1.126099458400000e-001 -5.939727341200000e-003   +0.000000000000000e+000 +0.000000000000000e+000   +0.000000000000000e+000 +0.000000000000000e+000   -3.658308618100000e-002 -6.316357793300000e-002   
+8.250000000000000e+000   -5.590443805000000e-002 +9.009900879600000e-002   +0.000000000000000e+000 +0.000000000000000e+000   +0.000000000000000e+000 +0.000000000000000e+000   +1.245344708600000e-002 -9.465844989900000e-002   
+8.500000000000000e+000   -7.149461555500000e-003 +3.539228720600000e-002   +0.000000000000000e+000 +0.000000000000000e+000   +0.000000000000000e+000 +0.000000000000000e+000   +8.651961508900000e-004 -7.039047143100000e-002   
+8.750000000000000e+000   -6.879225760800000e-002 -2.321161027100000e-002   +0.000000000000000e+000 +0.000000000000000e+000   +0.000000000000000e+000 +0.000000000000000e+000   -4.135373108000000e-002 -4.501440133900000e-002   
+9.000000000000000e+000   -9.061002098400000e-002 +2.773277302800000e-002   +0.000000000000000e+000 +0.000000000000000e+000   +0.000000000000000e+000 +0.000000000000000e+000   -9.968646472100000e-002 -4.145791743100000e-002   
+9.250000000000000e+000   -3.079819059100000e-002 +5.426831409100000e-002   +0.000000000000000e+000 +0.000000000000000e+000   +0.000000000000000e+000 +0.000000000000000e+000   -1.211599175900000e-001 -5.669793386300000e-002   
+9.500000000000000e+000   +3.037612866500000e-002 -1.123682030100000e-002   +0.000000000000000e+000 +0.000000000000000e+000   +0.000000000000000e+000 +0.000000000000000e+000   -7.868541496600000e-002 -3.454942427700000e-002   
+9.750000000000000e+000   +8.225545643700000e-003 -4.087353525200000e-002   +0.000000000000000e+000 +0.000000000000000e+000   +0.000000000000000e+000 +0.000000000000000e+000   -7.266688155900000e-002 +3.640264237000000e-002   
+1.000000000000000e+001   +4.911388235300000e-002 -3.734303680800000e-002   +0.000000000000000e+000 +0.000000000000000e+000   +0.000000000000000e+000 +0.000000000000000e+000   -1.320293075700000e-001 +2.464330531100000e-002   
+1.025000000000000e+001   +8.035744172600000e-002 -8.081153299800000e-002   +0.000000000000000e+000 +0.000000000000000e+000   +0.000000000000000e+000 +0.000000000000000e+000   -1.476319183200000e-001 -6.981661870500000e-002   
+1.050000000000000e+001   +6.160507486100000e-002 -1.375070684900000e-001   +0.000000000000000e+000 +0.000000000000000e+000   +0.000000000000000e+000 +0.000000000000000e+000   -6.994381449600000e-002 -1.445513743800000e-001   
+1.075000000000000e+001   -8.187912883300000e-003 -8.053461527300000e-002   +0.000000000000000e+000 +0.000000000000000e+000   +0.000000000000000e+000 +0.000000000000000e+000   +7.977926483000000e-002 -1.248323681300000e-001   
+1.100000000000000e+001   +5.500833712400000e-002 +3.001366055600000e-002   +0.000000000000000e+000 +0.000000000000000e+000   +0.000000000000000e+000 +0.000000000000000e+000   +9.235163512000000e-002 -1.761456328800000e-003   
+1.125000000000000e+001   +1.625632535900000e-001 +4.680079612100000e-002   +0.000000000000000e+000 +0.000000000000000e+000   +0.000000000000000e+000 +0.000000000000000e+000   +1.430144059900000e-004 +1.236367765400000e-001   
+1.150000000000000e+001   +1.788424217900000e-001 +3.893706675800000e-002   +0.000000000000000e+000 +0.000000000000000e+000   +0.000000000000000e+000 +0.000000000000000e+000   -1.326584576800000e-001 +7.413296742700000e-002   
+1.175000000000000e+001   +1.346761178400000e-001 -1.980004383900000e-002   +0.000000000000000e+000 +0.000000000000000e+000   +0.000000000000000e+000 +0.000000000000000e+000   -1.507895927900000e-001 -2.283145900600000e-002   
+1.200000000000000e+001   +6.304708121700000e-002 -5.066598350900000e-002   +0.000000000000000e+000 +0.000000000000000e+000   +0.000000000000000e+000 +0.000000000000000e+000   -1.219703762400000e-001 -7.243435600100000e-002   
+1.225000000000000e+001   -9.053751667900000e-004 -5.497597983600000e-002   +0.000000000000000e+000 +0.000000000000000e+000   +0.000000000000000e+000 +0.000000000000000e+000   -3.396147724600000e-002 -2.170430650100000e-002   
+1.250000000000000e+001   -1.132860139000000e-001 -2.217402078800000e-002   +0.000000000000000e+000 +0.000000000000000e+000   +0.000000000000000e+000 +0.000000000000000e+000   -9.531104000000000e-002 +2.409783718800000e-002   
+1.275000000000000e+001   -1.446014511800000e-001 +7.400174930100000e-002   +0.000000000000000e+000 +0.000000000000000e+000   +0.000000000000000e+000 +0.000000000000000e+000   -1.559691702900000e-001 -6.074483076000000e-002   
+1.300000000000000e+001   -4.225894817500000e-002 +1.135758194900000e-001   +0.000000000000000e+000 +0.000000000000000e+000   +0.000000000000000e+000 +0.000000000000000e+000   -1.352681713000000e-001 -9.003626778300000e-002   
+1.325000000000000e+001   +4.146687306800000e-003 +3.030692119900000e-002   +0.000000000000000e+000 +0.000000000000000e+000   +0.000000000000000e+000 +0.000000000000000e+000   -1.667878909200000e-002 -9.778949918400000e-002   
+1.350000000000000e+001   -7.699559262600000e-002 -3.452766149900000e-002   +0.000000000000000e+000 +0.000000000000000e+000   +0.000000000000000e+000 +0.000000000000000e+000   +9.069470289500000e-002 +4.916061138800000e-003   
+1.375000000000000e+001   -1.195213314600000e-001 -1.791277085300000e-002   +0.000000000000000e+000 +0.000000000000000e+000   +0.000000000000000e+000 +0.000000000000000e+000   +8.896587523000000e-002 +1.353024903100000e-001   
+1.400000000000000e+001   -5.836480561900000e-002 +3.343799725100000e-002   +0.000000000000000e+000 +0.000000000000000e+000   +0.000000000000000e+000 +0.000000000000000e+000   +3.345764721800000e-002 +1.523741658400000e-001   
+1.425000000000000e+001   +1.371333649800000e-002 +5.461604140700000e-003   +0.000000000000000e+000 +0.000000000000000e+000   +0.000000000000000e+000 +0.000000000000000e+000   -4.787415239500000e-002 +1.105201770100000e-001   
+1.450000000000000e+001   +5.510408171600000e-002 -5.362843375200000e-003   +0.000000000000000e+000 +0.000000000000000e+000   +0.000000000000000e+000 +0.000000000000000e+000   -3.831173013500000e-002 +4.007903476400000e-002   
+1.475000000000000e+001   +8.833654619300000e-002 -4.742113259200000e-002   +0.000000000000000e+000 +0.000000000000000e+000   +0.000000000000000e+000 +0.000000000000000e+000   -3.519056854200000e-002 +4.654884915500000e-002   
+1.500000000000000e+001   +1.218775990200000e-001 -4.499987532400000e-002   +0.000000000000000e+000 +0.000000000000000e+000   +0.000000000000000e+000 +0.000000000000000e+000   -4.929160767100000e-002 +5.134491547500000e-002   
+1.525000000000000e+001   +7.310500124200000e-002 -7.456590923700000e-002   +0.000000000000000e+000 +0.000000000000000e+000   +0.000000000000000e+000 +0.000000000000000e+000   -6.243709463000000e-002 +3.553542283800000e-002   
+1.550000000000000e+001   -5.671768294400000e-003 -1.983188040900000e-002   +0.000000000000000e+000 +0.000000000000000e+000   +0.000000000000000e+000 +0.000000000000000e+000   -2.804386454300000e-002 +3.801508999200000e-003   
+1.575000000000000e+001   -3.318424426200000e-003 +6.348846754900000e-002   +0.000000000000000e+000 +0.000000000000000e+000   +0.000000000000000e+000 +0.000000000000000e+000   +1.163013472400000e-002 +5.182123695600000e-002   
+1.600000000000000e+001   +3.399811207600000e-002 +9.929201723400000e-002   +0.000000000000000e+000 +0.000000000000000e+000   +0.000000000000000e+000 +0.000000000000000e+000   -1.213228830500000e-002 +7.194059771800000e-002   
+1.625000000000000e+001   +4.074093328400000e-002 +9.656097922200000e-002   +0.000000000000000e+000 +0.000000000000000e+000   +0.000000000000000e+000 +0.000000000000000e+000   -1.114976662200000e-001 +4.746933874300000e-002   
+1.650000000000000e+001   +1.897512817000000e-002 +8.008940622600000e-002   +0.000000000000000e+000 +0.000000000000000e+000   +0.000000000000000e+000 +0.000000000000000e+000   -1.485763391000000e-001 -4.684678154900000e-002   
+1.675000000000000e+001   +4.335017744800000e-002 +1.958380575700000e-002   +0.000000000000000e+000 +0.000000000000000e+000   +0.000000000000000e+000 +0.000000000000000e+000   -1.136528512200000e-001 -6.422531289900000e-002   
+1.700000000000000e+001   +2.133156144200000e-002 -9.153379740200000e-002   +0.000000000000000e+000 +0.000000000000000e+000   +0.000000000000000e+000 +0.000000000000000e+000   -1.107048130100000e-002 -6.792986265300000e-003   
+1.725000000000000e+001   -1.019895795500000e-001 -1.415601466300000e-001   +0.000000000000000e+000 +0.000000000000000e+000   +0.000000000000000e+000 +0.000000000000000e+000   -8.789593132800000e-003 +8.900728453400000e-002   
+1.750000000000000e+001   -1.666359671200000e-001 -1.021302091300000e-001   +0.000000000000000e+000 +0.000000000000000e+000   +0.000000000000000e+000 +0.000000000000000e+000   -2.828443982600000e-002 +1.265777126100000e-001   
+1.775000000000000e+001   -1.004454666400000e-001 +1.710741072100000e-002   +0.000000000000000e+000 +0.000000000000000e+000   +0.000000000000000e+000 +0.000000000000000e+000   +5.589539081800000e-003 +6.337594716400000e-002   
+1.800000000000000e+001   +5.972467664000000e-002 -3.805570553500000e-003   +0.000000000000000e+000 +0.000000000000000e+000   +0.000000000000000e+000 +0.000000000000000e+000   +1.102897760100000e-001 +1.706800656300000e-002   
+1.825000000000000e+001   +1.087722795600000e-001 -7.499129944400000e-002   +0.000000000000000e+000 +0.000000000000000e+000   +0.000000000000000e+000 +0.000000000000000e+000   +1.496507094900000e-001 +5.451897565900000e-002   
+1.850000000000000e+001   +4.451151463600000e-002 -1.302451205300000e-001   +0.000000000000000e+000 +0.000000000000000e+000   +0.000000000000000e+000 +0.000000000000000e+000   +1.167158728100000e-001 +7.368861560300000e-002   
+1.875000000000000e+001   -1.140025150800000e-002 -7.767101910400000e-002   +0.000000000000000e+000 +0.000000000000000e+000   +0.000000000000000e+000 +0.000000000000000e+000   +3.861996960600000e-002 +3.472436776000000e-002   
+1.900000000000000e+001   -1.188395602700000e-002 +2.170585624700000e-002   +0.000000000000000e+000 +0.000000000000000e+000   +0.000000000000000e+000 +0.000000000000000e+000   +1.323726417900000e-002 -1.870611489400000e-002   
+1.925000000000000e+001   -2.404953964600000e-003 +9.164571618500000e-002   +0.000000000000000e+000 +0.000000000000000e+000   +0.000000000000000e+000 +0.000000000000000e+000   +4.109930646100000e-002 +7.301589611200000e-003   
+1.950000000000000e+001   +4.534403486800000e-003 +1.346869298000000e-001   +0.000000000000000e+000 +0.000000000000000e+000   +0.000000000000000e+000 +0.000000000000000e+000   +2.594021628800000e-002 +4.359620672800000e-002   
+1.975000000000000e+001   +3.872416600300000e-002 +1.142756392100000e-001   +0.000000000000000e+000 +0.000000000000000e+000   +0.000000000000000e+000 +0.000000000000000e+000   -1.486429328700000e-002 +2.543921067400000e-002   
+2.000000000000000e+001   +2.728134576500000e-003 +5.833610624200000e-002   +0.000000000000000e+000 +0.000000000000000e+000   +0.000000000000000e+000 +0.000000000000000e+000   +9.512357320300000e-003 -4.650919220200000e-002   
+2.025000000000000e+001   -7.171748875900000e-002 +2.799120800400000e-002   +0.000000000000000e+000 +0.000000000000000e+000   +0.000000000000000e+000 +0.000000000000000e+000   +1.160625705700000e-001 -3.159871920600000e-002   
+2.050000000000000e+001   -1.357020826000000e-001 +3.875406008500000e-002   +0.000000000000000e+000 +0.000000000000000e+000   +0.000000000000000e+000 +0.000000000000000e+000   +1.357641428400000e-001 +7.289780835300000e-002   
+2.075000000000000e+001   -1.458002189800000e-001 +1.040228666500000e-001   +0.000000000000000e+000 +0.000000000000000e+000   +0.000000000000000e+000 +0.000000000000000e+000   +1.158126371600000e-002 +1.561720265400000e-001   
+2.100000000000000e+001   -4.859644067400000e-002 +1.033671618300000e-001   +0.000000000000000e+000 +0.000000000000000e+000   +0.000000000000000e+000 +0.000000000000000e+000   -1.218122603000000e-001 +7.687131719600000e-002   
+2.125000000000000e+001   +5.727593242900000e-002 +5.664368037500000e-002   +0.000000000000000e+000 +0.000000000000000e+000   +0.000000000000000e+000 +0.000000000000000e+000   -9.344322740000000e-002 -4.490033798500000e-002   
+2.150000000000000e+001   +1.367757666000000e-001 -1.814586909500000e-002   +0.000000000000000e+000 +0.000000000000000e+000   +0.000000000000000e+000 +0.000000000000000e+000   +6.295154494800000e-002 -5.964110191500000e-002   
+2.175000000000000e+001   +1.527436238500000e-001 -7.848688498500000e-002   +0.000000000000000e+000 +0.000000000000000e+000   +0.000000000000000e+000 +0.000000000000000e+000   +2.157446914400000e-001 +7.077889767700000e-002   
+2.200000000000000e+001   +1.396229970800000e-001 -1.045406620800000e-001   +0.000000000000000e+000 +0.000000000000000e+000   +0.000000000000000e+000 +0.000000000000000e+000   +5.575568104200000e-002 +2.500947091300000e-001   
