# GHz S RI R 50
!
+2.500000000000000e-001   +4.621046303900000e-002 +9.548997615300000e-001   +0.000000000000000e+000 +0.000000000000000e+000   +0.000000000000000e+000 +0.000000000000000e+000   -1.415953819300000e-001 +9.546067928800000e-001   
+5.000000000000000e-001   +9.316516161100000e-001 +1.601716046400000e-001   +0.000000000000000e+000 +0.000000000000000e+000   +0.000000000000000e+000 +0.000000000000000e+000   +7.930925253200000e-001 +4.786706447600000e-001   
+7.500000000000000e-001   +4.320687123700000e-001 -8.571092388100000e-001   +0.000000000000000e+000 +0.000000000000000e+000   +0.000000000000000e+000 +0.000000000000000e+000   +8.310075488500000e-001 -5.124209479000000e-001   
+1.000000000000000e+000   -7.212166367300000e-001 -6.120857419900000e-001   +0.000000000000000e+000 +0.000000000000000e+000   +0.000000000000000e+000 +0.000000000000000e+000   -1.211109562500000e-001 -9.808044107300000e-001   
+1.250000000000000e+000   -6.453845952700000e-001 +6.268749074300000e-001   +0.000000000000000e+000 +0.000000000000000e+000   +0.000000000000000e+000 +0.000000000000000e+000   -8.555234263400000e-001 -1.752961766700000e-001   
+1.500000000000000e+000   +4.924335426200000e-001 +7.776470436200000e-001   +0.000000000000000e+000 +0.000000000000000e+000   +0.000000000000000e+000 +0.000000000000000e+000   -5.150523953000000e-001 +7.716000663200000e-001   
+1.750000000000000e+000   +8.310297499000000e-001 -4.451788814000000e-001   +0.000000000000000e+000 +0.000000000000000e+000   +0.000000000000000e+000 +0.000000000000000e+000   +6.464250967300000e-001 +7.227292362700000e-001   
+2.000000000000000e+000   -2.515686048400000e-001 -8.502782973000000e-001   +0.000000000000000e+000 +0.000000000000000e+000   +0.000000000000000e+000 +0.000000000000000e+000   +8.260478219200000e-001 -3.230925060900000e-001   
+2.250000000000000e+000   -8.499933267500000e-001 +6.269537908600000e-002   +0.000000000000000e+000 +0.000000000000000e+000   +0.000000000000000e+000 +0.000000000000000e+000   +3.883234913600000e-002 -8.494513321300000e-001   
+2.500000000000000e+000   -1.390135800600000e-001 +8.740769777900000e-001   +0.000000000000000e+000 +0.000000000000000e+000   +0.000000000000000e+000 +0.000000000000000e+000   -7.817387870500000e-001 -4.180461861800000e-001   
+2.750000000000000e+000   +6.121681165700000e-001 +6.096093103600000e-001   +0.000000000000000e+000 +0.000000000000000e+000   +0.000000000000000e+000 +0.000000000000000e+000   -7.959866086000000e-001 -3.951523757300000e-001   
+3.000000000000000e+000   +8.228013201700000e-001 +8.535512202100000e-002   +0.000000000000000e+000 +0.000000000000000e+000   +0.000000000000000e+000 +0.000000000000000e+000   -6.291630761000000e-001 -5.212960462200000e-001   
+3.250000000000000e+000   +8.188652706000000e-001 -3.995617144200000e-001   +0.000000000000000e+000 +0.000000000000000e+000   +0.000000000000000e+000 +0.000000000000000e+000   -3.685799498200000e-001 -8.004963361100000e-001   
+3.500000000000000e+000   +3.041046029400000e-001 -7.515223713200000e-001   +0.000000000000000e+000 +0.000000000000000e+000   +0.000000000000000e+000 +0.000000000000000e+000   -2.465288835700000e-001 -7.787418555200000e-001   
+3.750000000000000e+000   -2.643136954600000e-002 -8.004091599500000e-001   +0.000000000000000e+000 +0.000000000000000e+000   +0.000000000000000e+000 +0.000000000000000e+000   +1.676618807300000e-001 -8.065916997100000e-001   
+4.000000000000000e+000   -6.104459488600000e-001 -4.457559425800000e-001   +0.000000000000000e+000 +0.000000000000000e+000   +0.000000000000000e+000 +0.000000000000000e+000   +1.137358463900000e-001 -7.445453508000000e-001   
+4.250000000000000e+000   -7.598899648800000e-001 +1.847588592700000e-001   +0.000000000000000e+000 +0.000000000000000e+000   +0.000000000000000e+000 +0.000000000000000e+000   +2.740168580600000e-001 -7.732697936300000e-001   
+4.500000000000000e+000   -3.281183310000000e-001 +5.882251188400000e-001   +0.000000000000000e+000 +0.000000000000000e+000   +0.000000000000000e+000 +0.000000000000000e+000   +2.270968784500000e-001 -6.644934922500000e-001   
+4.750000000000000e+000   +1.835129885800000e-001 +7.715829556100000e-001   +0.000000000000000e+000 +0.000000000000000e+000   +0.000000000000000e+000 +0.000000000000000e+000   +5.287821762300000e-001 -6.018889731200000e-001   
+5.000000000000000e+000   +3.403462607300000e-001 +5.401625177000000e-001   +0.000000000000000e+000 +0.000000000000000e+000   +0.000000000000000e+000 +0.000000000000000e+000   +6.066707553200000e-001 -3.365232634600000e-001   
+5.250000000000000e+000   +6.686049730500000e-001 +4.202171753400000e-001   +0.000000000000000e+000 +0.000000000000000e+000   +0.000000000000000e+000 +0.000000000000000e+000   +7.925764208600000e-001 +1.397331424300000e-001   
+5.500000000000000e+000   +6.441997441600000e-001 -1.418296978100000e-001   +0.000000000000000e+000 +0.000000000000000e+000   +0.000000000000000e+000 +0.000000000000000e+000   +6.514069399200000e-001 +1.785082489400000e-001   
+5.750000000000000e+000   +3.448291533700000e-001 -7.596408803900000e-001   +0.000000000000000e+000 +0.000000000000000e+000   +0.000000000000000e+000 +0.000000000000000e+000   +7.397783445500000e-001 +3.470166888700000e-001   
+6.000000000000000e+000   -1.754921297900000e-001 -6.625511633200000e-001   +0.000000000000000e+000 +0.000000000000000e+000   +0.000000000000000e+000 +0.000000000000000e+000   +6.403380574100000e-001 +2.835242437000000e-001   
+6.250000000000000e+000   -6.571270593200000e-001 -3.974581551600000e-001   +0.000000000000000e+000 +0.000000000000000e+000   +0.000000000000000e+000 +0.000000000000000e+000   +6.416785463600000e-001 +5.277932258000000e-001   
+6.500000000000000e+000   -6.150091045100000e-001 -5.078647037900000e-002   +0.000000000000000e+000 +0.000000000000000e+000   +0.000000000000000e+000 +0.000000000000000e+000   +4.761769330500000e-001 +5.233449836200000e-001   
+6.750000000000000e+000   -6.203375899300000e-001 +3.502637677800000e-001   +0.000000000000000e+000 +0.000000000000000e+000   +0.000000000000000e+000 +0.000000000000000e+000   +3.351200194600000e-001 +6.845792178200000e-001   
+7.000000000000000e+000   -2.453860431000000e-001 +5.717891979600000e-001   +0.000000000000000e+000 +0.000000000000000e+000   +0.000000000000000e+000 +0.000000000000000e+000   +2.504768216800000e-001 +5.496198975200000e-001   
+7.250000000000000e+000   +1.484472336900000e-001 +7.751143777400000e-001   +0.000000000000000e+000 +0.000000000000000e+000   +0.000000000000000e+000 +0.000000000000000e+000   +3.886848660100000e-002 +7.702243580200000e-001   
+7.500000000000000e+000   +4.611829083800000e-001 +5.100314607000000e-001   +0.000000000000000e+000 +0.000000000000000e+000   +0.000000000000000e+000 +0.000000000000000e+000   -3.032175269000000e-001 +6.690896083400000e-001   
+7.750000000000000e+000   +6.674841706900000e-001 +2.721899717800000e-003   +0.000000000000000e+000 +0.000000000000000e+000   +0.000000000000000e+000 +0.000000000000000e+000   -6.780963982600000e-001 +3.947278848900000e-001   
+8.000000000000000e+000   +3.667955910700000e-001 -3.986588734200000e-001   +0.000000000000000e+000 +0.000000000000000e+000   +0.000000000000000e+000 +0.000000000000000e+000   -6.097991572700000e-001 +2.090030318600000e-001   
+8.250000000000000e+000   -1.714188640400000e-001 -5.065421549200000e-001   +0.000000000000000e+000 +0.000000000000000e+000   +0.000000000000000e+000 +0.000000000000000e+000   -6.639589980500000e-001 +4.212562853900000e-002   
+8.500000000000000e+000   -4.766649955500000e-001 -3.398240914800000e-001   +0.000000000000000e+000 +0.000000000000000e+000   +0.000000000000000e+000 +0.000000000000000e+000   -6.613615549000000e-001 -1.355169970400000e-003   
+8.750000000000000e+000   -7.098449129700000e-001 -1.709529198800000e-001   +0.000000000000000e+000 +0.000000000000000e+000   +0.000000000000000e+000 +0.000000000000000e+000   -6.490061623200000e-001 -2.835525419500000e-001   
+9.000000000000000e+000   -6.003713565100000e-001 +2.420312890000000e-001   +0.000000000000000e+000 +0.000000000000000e+000   +0.000000000000000e+000 +0.000000000000000e+000   -6.641621323100000e-001 -2.627623706900000e-001   
+9.250000000000000e+000   -3.003770352400000e-001 +6.115077729900000e-001   +0.000000000000000e+000 +0.000000000000000e+000   +0.000000000000000e+000 +0.000000000000000e+000   -6.378646890500000e-001 -3.806732742900000e-001   
+9.500000000000000e+000   +1.861849558900000e-001 +5.287075918400000e-001   +0.000000000000000e+000 +0.000000000000000e+000   +0.000000000000000e+000 +0.000000000000000e+000   -5.319480660900000e-001 -4.416077608500000e-001   
+9.750000000000000e+000   +5.427325003500000e-001 +2.405123457600000e-001   +0.000000000000000e+000 +0.000000000000000e+000   +0.000000000000000e+000 +0.000000000000000e+000   -3.994058404600000e-001 -5.669298678900000e-001   
+1.000000000000000e+001   +6.197451091800000e-001 +1.204632273800000e-002   +0.000000000000000e+000 +0.000000000000000e+000   +0.000000000000000e+000 +0.000000000000000e+000   -1.979088571600000e-001 -5.933324301800000e-001   
+1.025000000000000e+001   +4.500104457300000e-001 -4.849692010700000e-001   +0.000000000000000e+000 +0.000000000000000e+000   +0.000000000000000e+000 +0.000000000000000e+000   -8.479877838700000e-002 -6.403615686600000e-001   
+1.050000000000000e+001   +1.525611314600000e-001 -7.138809348900000e-001   +0.000000000000000e+000 +0.000000000000000e+000   +0.000000000000000e+000 +0.000000000000000e+000   +1.107528402100000e-001 -6.246481952800000e-001   
+1.075000000000000e+001   -3.857051038900000e-001 -5.284858877200000e-001   +0.000000000000000e+000 +0.000000000000000e+000   +0.000000000000000e+000 +0.000000000000000e+000   +5.050031101300000e-001 -6.216914101100000e-001   
+1.100000000000000e+001   -5.432690331600000e-001 +1.195353681300000e-002   +0.000000000000000e+000 +0.000000000000000e+000   +0.000000000000000e+000 +0.000000000000000e+000   +4.656884818500000e-001 -3.981688627200000e-001   
+1.125000000000000e+001   -3.636913151600000e-001 +3.196817648100000e-001   +0.000000000000000e+000 +0.000000000000000e+000   +0.000000000000000e+000 +0.000000000000000e+000   +5.302043717500000e-001 -1.451027022800000e-001   
+1.150000000000000e+001   -2.303543778000000e-001 +4.845600175200000e-001   +0.000000000000000e+000 +0.000000000000000e+000   +0.000000000000000e+000 +0.000000000000000e+000   +4.242566194300000e-001 -7.865370474700000e-002   
+1.175000000000000e+001   +2.358063045900000e-001 +5.138101422900000e-001   +0.000000000000000e+000 +0.000000000000000e+000   +0.000000000000000e+000 +0.000000000000000e+000   +4.811301726100000e-001 -1.169991531600000e-001   
+1.200000000000000e+001   +4.794973025200000e-001 +2.456159615800000e-001   +0.000000000000000e+000 +0.000000000000000e+000   +0.000000000000000e+000 +0.000000000000000e+000   +4.928165405800000e-001 -1.498085408100000e-001   
+1.225000000000000e+001   +4.845084810100000e-001 -1.453318793100000e-001   +0.000000000000000e+000 +0.000000000000000e+000   +0.000000000000000e+000 +0.000000000000000e+000   +5.824212218700000e-001 +3.836592842500000e-002   
+1.250000000000000e+001   +3.233445697100000e-001 -3.261355819600000e-001   +0.000000000000000e+000 +0.000000000000000e+000   +0.000000000000000e+000 +0.000000000000000e+000   +3.497548172700000e-001 +3.467831094900000e-001   
+1.275000000000000e+001   +1.892193920700000e-002 -4.536533402000000e-001   +0.000000000000000e+000 +0.000000000000000e+000   +0.000000000000000e+000 +0.000000000000000e+000   +6.423468520900000e-002 +4.720535278400000e-001   
+1.300000000000000e+001   -3.954030030000000e-001 -3.320949649800000e-001   +0.000000000000000e+000 +0.000000000000000e+000   +0.000000000000000e+000 +0.000000000000000e+000   +2.609847603900000e-002 +4.227624513600000e-001   
+1.325000000000000e+001   -4.940847455000000e-001 +5.243714461200000e-002   +0.000000000000000e+000 +0.000000000000000e+000   +0.000000000000000e+000 +0.000000000000000e+000   +1.058582557800000e-001 +4.493679908900000e-001   
+1.350000000000000e+001   -4.558171780000000e-001 +2.661900978100000e-001   +0.000000000000000e+000 +0.000000000000000e+000   +0.000000000000000e+000 +0.000000000000000e+000   +1.724408037600000e-001 +4.771702041500000e-001   
+1.375000000000000e+001   -3.446622941500000e-001 +4.247181485200000e-001   +0.000000000000000e+000 +0.000000000000000e+000   +0.000000000000000e+000 +0.000000000000000e+000   -4.486774253800000e-002 +6.776055760100000e-001   
+1.400000000000000e+001   +5.395724575600000e-002 +4.753212105600000e-001   +0.000000000000000e+000 +0.000000000000000e+000   +0.000000000000000e+000 +0.000000000000000e+000   -4.792061508500000e-002 +6.815312747900000e-001   
+1.425000000000000e+001   +3.438825588200000e-001 +2.914288639400000e-001   +0.000000000000000e+000 +0.000000000000000e+000   +0.000000000000000e+000 +0.000000000000000e+000   -2.943575775600000e-001 +5.713125549000000e-001   
+1.450000000000000e+001   +4.584239686400000e-001 +5.256331001600000e-002   +0.000000000000000e+000 +0.000000000000000e+000   +0.000000000000000e+000 +0.000000000000000e+000   -2.892546053400000e-001 +3.984310865600000e-001   
+1.475000000000000e+001   +4.420870788100000e-001 -3.701728675100000e-001   +0.000000000000000e+000 +0.000000000000000e+000   +0.000000000000000e+000 +0.000000000000000e+000   -3.710569570300000e-001 +3.342601551800000e-001   
+1.500000000000000e+001   +2.728986945500000e-001 -5.175432249100000e-001   +0.000000000000000e+000 +0.000000000000000e+000   +0.000000000000000e+000 +0.000000000000000e+000   -4.516814777200000e-001 +2.520622785200000e-001   
+1.525000000000000e+001   -1.839800430100000e-001 -5.179094510800000e-001   +0.000000000000000e+000 +0.000000000000000e+000   +0.000000000000000e+000 +0.000000000000000e+000   -5.656341825600000e-001 +5.310949297700000e-002   
+1.550000000000000e+001   -4.130586035300000e-001 -2.043966545800000e-001   +0.000000000000000e+000 +0.000000000000000e+000   +0.000000000000000e+000 +0.000000000000000e+000   -5.369270027100000e-001 -1.223457010000000e-001   
+1.575000000000000e+001   -3.906020667900000e-001 +2.317134322200000e-001   +0.000000000000000e+000 +0.000000000000000e+000   +0.000000000000000e+000 +0.000000000000000e+000   -4.342306666100000e-001 -1.672145341900000e-001   
+1.600000000000000e+001   -1.122880383200000e-001 +4.847881393900000e-001   +0.000000000000000e+000 +0.000000000000000e+000   +0.000000000000000e+000 +0.000000000000000e+000   -4.195444404700000e-001 -1.226636074600000e-001   
+1.625000000000000e+001   +1.000964596900000e-001 +5.625190954200000e-001   +0.000000000000000e+000 +0.000000000000000e+000   +0.000000000000000e+000 +0.000000000000000e+000   -3.888791949100000e-001 -2.495436760500000e-001   
+1.650000000000000e+001   +3.366270600400000e-001 +4.585942878700000e-001   +0.000000000000000e+000 +0.000000000000000e+000   +0.000000000000000e+000 +0.000000000000000e+000   -2.954041703200000e-001 -4.389353727700000e-001   
+1.675000000000000e+001   +5.119320887900000e-001 +9.001167424400000e-002   +0.000000000000000e+000 +0.000000000000000e+000   +0.000000000000000e+000 +0.000000000000000e+000   -2.477605363400000e-001 -4.753139211000000e-001   
+1.700000000000000e+001   +3.597928244300000e-001 -3.459437019800000e-001   +0.000000000000000e+000 +0.000000000000000e+000   +0.000000000000000e+000 +0.000000000000000e+000   +2.144747884400000e-002 -4.546099842500000e-001   
+1.725000000000000e+001   -3.806497618500000e-002 -5.364136159800000e-001   +0.000000000000000e+000 +0.000000000000000e+000   +0.000000000000000e+000 +0.000000000000000e+000   +1.704647889200000e-001 -3.831700726100000e-001   
+1.750000000000000e+001   -3.130436392900000e-001 -5.185846608900000e-001   +0.000000000000000e+000 +0.000000000000000e+000   +0.000000000000000e+000 +0.000000000000000e+000   +3.337999624800000e-001 -2.594038211600000e-001   
+1.775000000000000e+001   -5.161658794600000e-001 -1.581837790600000e-001   +0.000000000000000e+000 +0.000000000000000e+000   +0.000000000000000e+000 +0.000000000000000e+000   +3.484507512100000e-001 -2.494648814200000e-001   
+1.800000000000000e+001   -3.434529130700000e-001 +8.458946404000000e-002   +0.000000000000000e+000 +0.000000000000000e+000   +0.000000000000000e+000 +0.000000000000000e+000   +4.931637419600000e-001 -2.585346034200000e-001   
+1.825000000000000e+001   -1.896021322600000e-001 +1.757351857100000e-001   +0.000000000000000e+000 +0.000000000000000e+000   +0.000000000000000e+000 +0.000000000000000e+000   +5.247620963900000e-001 -6.298469826600000e-002   
+1.850000000000000e+001   -3.811440708600000e-003 +2.884723728600000e-001   +0.000000000000000e+000 +0.000000000000000e+000   +0.000000000000000e+000 +0.000000000000000e+000   +4.730974340400000e-001 +6.992773959100000e-002   
+1.875000000000000e+001   +2.799037662600000e-001 +3.301640628100000e-001   +0.000000000000000e+000 +0.000000000000000e+000   +0.000000000000000e+000 +0.000000000000000e+000   +4.026135776500000e-001 +1.129794385900000e-001   
+1.900000000000000e+001   +4.269906946700000e-001 +7.176765183700000e-002   +0.000000000000000e+000 +0.000000000000000e+000   +0.000000000000000e+000 +0.000000000000000e+000   +3.806048771200000e-001 +2.164164963200000e-001   
+1.925000000000000e+001   +3.138768703200000e-001 -8.450904368300000e-002   +0.000000000000000e+000 +0.000000000000000e+000   +0.000000000000000e+000 +0.000000000000000e+000   +3.527138365000000e-001 +3.546304527600000e-001   
+1.950000000000000e+001   +1.669893656200000e-001 -1.715572056200000e-001   +0.000000000000000e+000 +0.000000000000000e+000   +0.000000000000000e+000 +0.000000000000000e+000   +2.992882901400000e-001 +4.448484765600000e-001   
+1.975000000000000e+001   -5.258569653300000e-002 -2.363127757400000e-001   +0.000000000000000e+000 +0.000000000000000e+000   +0.000000000000000e+000 +0.000000000000000e+000   +1.685240396800000e-001 +4.314036453600000e-001   
+2.000000000000000e+001   -3.324656595200000e-001 -1.405544908000000e-001   +0.000000000000000e+000 +0.000000000000000e+000   +0.000000000000000e+000 +0.000000000000000e+000   +1.104620598200000e-001 +3.600184714600000e-001   
+2.025000000000000e+001   -4.077155798400000e-001 +7.338830388500000e-002   +0.000000000000000e+000 +0.000000000000000e+000   +0.000000000000000e+000 +0.000000000000000e+000   +7.304518512300000e-002 +3.618824133000000e-001   
+2.050000000000000e+001   -3.952893679200000e-001 +2.437618832000000e-001   +0.000000000000000e+000 +0.000000000000000e+000   +0.000000000000000e+000 +0.000000000000000e+000   +3.448802778700000e-003 +3.974087986900000e-001   
+2.075000000000000e+001   -1.982904560500000e-001 +5.105046777800000e-001   +0.000000000000000e+000 +0.000000000000000e+000   +0.000000000000000e+000 +0.000000000000000e+000   -2.445117881200000e-001 +3.882795355200000e-001   
+2.100000000000000e+001   +1.840816827200000e-001 +4.464879094900000e-001   +0.000000000000000e+000 +0.000000000000000e+000   +0.000000000000000e+000 +0.000000000000000e+000   -4.222505029500000e-001 +2.409600983200000e-001   
+2.125000000000000e+001   +4.081406655600000e-001 +1.091775711700000e-001   +0.000000000000000e+000 +0.000000000000000e+000   +0.000000000000000e+000 +0.000000000000000e+000   -4.441574103900000e-001 +5.704202786800000e-002   
+2.150000000000000e+001   +3.927859789000000e-001 -1.520291996900000e-001   +0.000000000000000e+000 +0.000000000000000e+000   +0.000000000000000e+000 +0.000000000000000e+000   -2.983929815400000e-001 +1.370164536500000e-001   
+2.175000000000000e+001   +3.146306373000000e-001 -2.908864920800000e-001   +0.000000000000000e+000 +0.000000000000000e+000   +0.000000000000000e+000 +0.000000000000000e+000   -1.417652035800000e-001 +2.354924592000000e-001   
+2.200000000000000e+001   +2.298930404900000e-001 -3.749135242300000e-001   +0.000000000000000e+000 +0.000000000000000e+000   +0.000000000000000e+000 +0.000000000000000e+000   -2.723236933500000e-001 +2.051572507600000e-001   
