# GHz S RI R 50
!
+2.500000000000000e-001   +2.270302945900000e-001 -9.748296095100000e-001   +0.000000000000000e+000 +0.000000000000000e+000   +0.000000000000000e+000 +0.000000000000000e+000   +4.174011197700000e-001 -9.046761827500000e-001   
+5.000000000000000e-001   -8.979761082900000e-001 -3.319392523800000e-001   +0.000000000000000e+000 +0.000000000000000e+000   +0.000000000000000e+000 +0.000000000000000e+000   -7.064934388000000e-001 -6.862620573300000e-001   
+7.500000000000000e-001   -2.341735031700000e-001 +8.861224945500000e-001   +0.000000000000000e+000 +0.000000000000000e+000   +0.000000000000000e+000 +0.000000000000000e+000   -6.623172476100000e-001 +6.207779919200000e-001   
+1.000000000000000e+000   +8.120418214100000e-001 +3.911629189500000e-001   +0.000000000000000e+000 +0.000000000000000e+000   +0.000000000000000e+000 +0.000000000000000e+000   +3.155786597500000e-001 +8.262394600800000e-001   
+1.250000000000000e+000   +5.948084815100000e-001 -7.238627739800000e-001   +0.000000000000000e+000 +0.000000000000000e+000   +0.000000000000000e+000 +0.000000000000000e+000   +9.727223328200000e-001 +4.410674116400000e-002   
+1.500000000000000e+000   -5.225068723000000e-001 -7.089622180000000e-001   +0.000000000000000e+000 +0.000000000000000e+000   +0.000000000000000e+000 +0.000000000000000e+000   +4.227699257700000e-001 -7.748024593200000e-001   
+1.750000000000000e+000   -7.803397604900000e-001 +3.375639484200000e-001   +0.000000000000000e+000 +0.000000000000000e+000   +0.000000000000000e+000 +0.000000000000000e+000   -5.188186347900000e-001 -6.523842916900000e-001   
+2.000000000000000e+000   +1.935686343000000e-001 +8.718516601600000e-001   +0.000000000000000e+000 +0.000000000000000e+000   +0.000000000000000e+000 +0.000000000000000e+000   -8.592290632100000e-001 +2.668405079100000e-001   
+2.250000000000000e+000   +9.041741461300000e-001 -8.467885912900000e-002   +0.000000000000000e+000 +0.000000000000000e+000   +0.000000000000000e+000 +0.000000000000000e+000   -2.640625560900000e-002 +9.163462763300000e-001   
+2.500000000000000e+000   +1.006361879800000e-001 -8.815214145300000e-001   +0.000000000000000e+000 +0.000000000000000e+000   +0.000000000000000e+000 +0.000000000000000e+000   +8.261233129800000e-001 +3.286074552900000e-001   
+2.750000000000000e+000   -4.543885994000000e-001 -7.234672463200000e-001   +0.000000000000000e+000 +0.000000000000000e+000   +0.000000000000000e+000 +0.000000000000000e+000   +6.587621371500000e-001 +5.478664720200000e-001   
+3.000000000000000e+000   -7.815557298400000e-001 -3.580162334100000e-001   +0.000000000000000e+000 +0.000000000000000e+000   +0.000000000000000e+000 +0.000000000000000e+000   +3.974910678800000e-001 +7.950965563400000e-001   
+3.250000000000000e+000   -7.156623219700000e-001 +2.342698408700000e-001   +0.000000000000000e+000 +0.000000000000000e+000   +0.000000000000000e+000 +0.000000000000000e+000   +2.079242142000000e-001 +7.861901066600000e-001   
+3.500000000000000e+000   -3.297958956600000e-001 +7.429837167000000e-001   +0.000000000000000e+000 +0.000000000000000e+000   +0.000000000000000e+000 +0.000000000000000e+000   +1.509333943500000e-001 +8.122841252000000e-001   
+3.750000000000000e+000   +3.045481022000000e-001 +7.290225882600000e-001   +0.000000000000000e+000 +0.000000000000000e+000   +0.000000000000000e+000 +0.000000000000000e+000   +5.121780155100000e-002 +8.172535425600000e-001   
+4.000000000000000e+000   +7.241431726400000e-001 +3.541223167600000e-001   +0.000000000000000e+000 +0.000000000000000e+000   +0.000000000000000e+000 +0.000000000000000e+000   -1.292607776300000e-001 +8.256832143500000e-001   
+4.250000000000000e+000   +7.435181910900000e-001 -1.182540063300000e-001   +0.000000000000000e+000 +0.000000000000000e+000   +0.000000000000000e+000 +0.000000000000000e+000   -2.013274711900000e-001 +7.275143976900000e-001   
+4.500000000000000e+000   +6.274317538100000e-001 -5.852051677200000e-001   +0.000000000000000e+000 +0.000000000000000e+000   +0.000000000000000e+000 +0.000000000000000e+000   -4.958565939500000e-001 +7.078114401800000e-001   
+4.750000000000000e+000   +1.079331867500000e-001 -7.535716361500000e-001   +0.000000000000000e+000 +0.000000000000000e+000   +0.000000000000000e+000 +0.000000000000000e+000   -5.838179739700000e-001 +5.294140658000000e-001   
+5.000000000000000e+000   -2.653080104200000e-001 -7.955314126800000e-001   +0.000000000000000e+000 +0.000000000000000e+000   +0.000000000000000e+000 +0.000000000000000e+000   -7.782385248800000e-001 +1.480202595200000e-001   
+5.250000000000000e+000   -6.076905478800000e-001 -3.142665681800000e-001   +0.000000000000000e+000 +0.000000000000000e+000   +0.000000000000000e+000 +0.000000000000000e+000   -7.426409931800000e-001 -3.040899696600000e-002   
+5.500000000000000e+000   -6.608864755900000e-001 +4.010628328900000e-001   +0.000000000000000e+000 +0.000000000000000e+000   +0.000000000000000e+000 +0.000000000000000e+000   -8.090327123500000e-001 -3.868533792800000e-002   
+5.750000000000000e+000   -2.623499335000000e-001 +5.768369334500000e-001   +0.000000000000000e+000 +0.000000000000000e+000   +0.000000000000000e+000 +0.000000000000000e+000   -6.279559227100000e-001 -1.644049522400000e-001   
+6.000000000000000e+000   -2.263622408600000e-002 +7.247631886600000e-001   +0.000000000000000e+000 +0.000000000000000e+000   +0.000000000000000e+000 +0.000000000000000e+000   -4.568025674000000e-001 -5.986768334400000e-001   
+6.250000000000000e+000   +3.010587899200000e-001 +5.711461874700000e-001   +0.000000000000000e+000 +0.000000000000000e+000   +0.000000000000000e+000 +0.000000000000000e+000   -3.186186751600000e-001 -5.932738333100000e-001   
+6.500000000000000e+000   +6.891000880400000e-001 +2.539153562200000e-001   +0.000000000000000e+000 +0.000000000000000e+000   +0.000000000000000e+000 +0.000000000000000e+000   -1.673717263400000e-001 -7.137572363100000e-001   
+6.750000000000000e+000   +5.211153118400000e-001 -3.497475652200000e-001   +0.000000000000000e+000 +0.000000000000000e+000   +0.000000000000000e+000 +0.000000000000000e+000   -2.148450617100000e-001 -6.086134503500000e-001   
+7.000000000000000e+000   -9.966892521900000e-002 -6.470828245100000e-001   +0.000000000000000e+000 +0.000000000000000e+000   +0.000000000000000e+000 +0.000000000000000e+000   -3.117835628000000e-001 -7.166295744300000e-001   
+7.250000000000000e+000   -3.772678700000000e-001 -4.291281869400000e-001   +0.000000000000000e+000 +0.000000000000000e+000   +0.000000000000000e+000 +0.000000000000000e+000   -2.312085823800000e-001 -6.034135222800000e-001   
+7.500000000000000e+000   -5.765804227400000e-001 -3.145178744100000e-001   +0.000000000000000e+000 +0.000000000000000e+000   +0.000000000000000e+000 +0.000000000000000e+000   +1.849207552800000e-001 -7.004301556500000e-001   
+7.750000000000000e+000   -6.270015567000000e-001 -1.342575176500000e-001   +0.000000000000000e+000 +0.000000000000000e+000   +0.000000000000000e+000 +0.000000000000000e+000   +4.081390027900000e-001 -4.837338269300000e-001   
+8.000000000000000e+000   -6.386996810900000e-001 +3.845259195700000e-001   +0.000000000000000e+000 +0.000000000000000e+000   +0.000000000000000e+000 +0.000000000000000e+000   +6.866077597200000e-001 -3.372634151700000e-001   
+8.250000000000000e+000   -9.387307526700000e-002 +6.542469011000000e-001   +0.000000000000000e+000 +0.000000000000000e+000   +0.000000000000000e+000 +0.000000000000000e+000   +6.370704960900000e-001 -2.865031776900000e-001   
+8.500000000000000e+000   +4.856510354500000e-001 +5.118682150700000e-001   +0.000000000000000e+000 +0.000000000000000e+000   +0.000000000000000e+000 +0.000000000000000e+000   +7.203196947300000e-001 -7.201302627200000e-002   
+8.750000000000000e+000   +5.327765072500000e-001 +1.289324138000000e-001   +0.000000000000000e+000 +0.000000000000000e+000   +0.000000000000000e+000 +0.000000000000000e+000   +6.540993810200000e-001 +1.093312486500000e-001   
+9.000000000000000e+000   +5.356995414800000e-001 -2.069217708800000e-001   +0.000000000000000e+000 +0.000000000000000e+000   +0.000000000000000e+000 +0.000000000000000e+000   +5.412312554300000e-001 +3.047126816600000e-001   
+9.250000000000000e+000   +2.708445781800000e-001 -4.554676485500000e-001   +0.000000000000000e+000 +0.000000000000000e+000   +0.000000000000000e+000 +0.000000000000000e+000   +4.499713360500000e-001 +3.708712075200000e-001   
+9.500000000000000e+000   -7.304360072500000e-002 -6.114888733400000e-001   +0.000000000000000e+000 +0.000000000000000e+000   +0.000000000000000e+000 +0.000000000000000e+000   +3.256625671700000e-001 +4.980861363700000e-001   
+9.750000000000000e+000   -4.590061853300000e-001 -4.028021941600000e-001   +0.000000000000000e+000 +0.000000000000000e+000   +0.000000000000000e+000 +0.000000000000000e+000   +1.959833932800000e-001 +5.877894214200000e-001   
+1.000000000000000e+001   -6.334383593600000e-001 -1.205499309000000e-001   +0.000000000000000e+000 +0.000000000000000e+000   +0.000000000000000e+000 +0.000000000000000e+000   -2.440808177200000e-001 +6.634708880200000e-001   
+1.025000000000000e+001   -3.738701882100000e-001 +3.682175300300000e-001   +0.000000000000000e+000 +0.000000000000000e+000   +0.000000000000000e+000 +0.000000000000000e+000   -3.900095689800000e-001 +5.164202256000000e-001   
+1.050000000000000e+001   +1.398708298800000e-002 +4.608418255100000e-001   +0.000000000000000e+000 +0.000000000000000e+000   +0.000000000000000e+000 +0.000000000000000e+000   -4.224594839700000e-001 +4.393426850500000e-001   
+1.075000000000000e+001   +3.104405848800000e-001 +3.856467851400000e-001   +0.000000000000000e+000 +0.000000000000000e+000   +0.000000000000000e+000 +0.000000000000000e+000   -3.170384043000000e-001 +3.396955978200000e-001   
+1.100000000000000e+001   +6.160994926800000e-001 +3.747432830200000e-002   +0.000000000000000e+000 +0.000000000000000e+000   +0.000000000000000e+000 +0.000000000000000e+000   -3.691043586100000e-001 +4.456665398700000e-001   
+1.125000000000000e+001   +6.607083129800000e-001 -1.254098215500000e-001   +0.000000000000000e+000 +0.000000000000000e+000   +0.000000000000000e+000 +0.000000000000000e+000   -4.928785645700000e-001 +4.500502299000000e-001   
+1.150000000000000e+001   +5.979983759400000e-001 -3.661722823100000e-001   +0.000000000000000e+000 +0.000000000000000e+000   +0.000000000000000e+000 +0.000000000000000e+000   -7.264471545500000e-001 +1.911443061100000e-001   
+1.175000000000000e+001   +2.120043447400000e-001 -4.920590052800000e-001   +0.000000000000000e+000 +0.000000000000000e+000   +0.000000000000000e+000 +0.000000000000000e+000   -6.516301279300000e-001 +1.604493682900000e-002   
+1.200000000000000e+001   -3.207022626400000e-001 -4.667797703000000e-001   +0.000000000000000e+000 +0.000000000000000e+000   +0.000000000000000e+000 +0.000000000000000e+000   -6.529378553700000e-001 -1.398975555000000e-001   
+1.225000000000000e+001   -5.311540269300000e-001 -6.815658928700000e-002   +0.000000000000000e+000 +0.000000000000000e+000   +0.000000000000000e+000 +0.000000000000000e+000   -5.303980396000000e-001 -1.693718918000000e-001   
+1.250000000000000e+001   -5.753646980100000e-001 +2.941301606900000e-001   +0.000000000000000e+000 +0.000000000000000e+000   +0.000000000000000e+000 +0.000000000000000e+000   -4.967902012000000e-001 -3.730418607300000e-001   
+1.275000000000000e+001   -3.707225307600000e-001 +5.762446655600000e-001   +0.000000000000000e+000 +0.000000000000000e+000   +0.000000000000000e+000 +0.000000000000000e+000   -3.865544090800000e-001 -5.316310919500000e-001   
+1.300000000000000e+001   +2.249177958300000e-001 +5.555916626000000e-001   +0.000000000000000e+000 +0.000000000000000e+000   +0.000000000000000e+000 +0.000000000000000e+000   -3.582212955700000e-001 -5.452776079800000e-001   
+1.325000000000000e+001   +4.755739018700000e-001 +1.006018474700000e-001   +0.000000000000000e+000 +0.000000000000000e+000   +0.000000000000000e+000 +0.000000000000000e+000   -1.788562345700000e-001 -5.117143622400000e-001   
+1.350000000000000e+001   +3.393174375600000e-001 -3.602368863300000e-001   +0.000000000000000e+000 +0.000000000000000e+000   +0.000000000000000e+000 +0.000000000000000e+000   +1.339873947600000e-001 -4.766269992900000e-001   
+1.375000000000000e+001   +1.820103020900000e-001 -4.527610860900000e-001   +0.000000000000000e+000 +0.000000000000000e+000   +0.000000000000000e+000 +0.000000000000000e+000   +2.796343300500000e-001 -3.593111172800000e-001   
+1.400000000000000e+001   -1.057382876100000e-001 -5.496540872100000e-001   +0.000000000000000e+000 +0.000000000000000e+000   +0.000000000000000e+000 +0.000000000000000e+000   +2.829040890200000e-001 -3.022927254800000e-001   
+1.425000000000000e+001   -2.876310351600000e-001 -4.676783848300000e-001   +0.000000000000000e+000 +0.000000000000000e+000   +0.000000000000000e+000 +0.000000000000000e+000   +2.387235142500000e-001 -3.255772642100000e-001   
+1.450000000000000e+001   -4.804745603300000e-001 -4.751390613900000e-002   +0.000000000000000e+000 +0.000000000000000e+000   +0.000000000000000e+000 +0.000000000000000e+000   +3.442609283800000e-001 -3.954942883000000e-001   
+1.475000000000000e+001   -2.992499603400000e-001 +2.807086740200000e-001   +0.000000000000000e+000 +0.000000000000000e+000   +0.000000000000000e+000 +0.000000000000000e+000   +3.344509416600000e-001 -3.598433186200000e-001   
+1.500000000000000e+001   -1.052452122700000e-002 +4.592297255300000e-001   +0.000000000000000e+000 +0.000000000000000e+000   +0.000000000000000e+000 +0.000000000000000e+000   +4.253509481300000e-001 -1.493520220400000e-001   
+1.525000000000000e+001   +2.317253371500000e-001 +3.988412706200000e-001   +0.000000000000000e+000 +0.000000000000000e+000   +0.000000000000000e+000 +0.000000000000000e+000   +4.747731091500000e-001 -3.583227582000000e-002   
+1.550000000000000e+001   +4.383420278700000e-001 +2.718587287300000e-001   +0.000000000000000e+000 +0.000000000000000e+000   +0.000000000000000e+000 +0.000000000000000e+000   +4.368362327500000e-001 +1.427739576200000e-001   
+1.575000000000000e+001   +4.653518631900000e-001 -4.814149505400000e-002   +0.000000000000000e+000 +0.000000000000000e+000   +0.000000000000000e+000 +0.000000000000000e+000   +3.999202786900000e-001 +3.560717982900000e-001   
+1.600000000000000e+001   +2.728956738200000e-001 -3.696859715100000e-001   +0.000000000000000e+000 +0.000000000000000e+000   +0.000000000000000e+000 +0.000000000000000e+000   +3.220134061100000e-001 +4.182827072500000e-001   
+1.625000000000000e+001   -1.687997298700000e-002 -3.903153035700000e-001   +0.000000000000000e+000 +0.000000000000000e+000   +0.000000000000000e+000 +0.000000000000000e+000   +1.262095319500000e-001 +5.317975707500000e-001   
+1.650000000000000e+001   -3.017822456700000e-001 -2.572505049300000e-001   +0.000000000000000e+000 +0.000000000000000e+000   +0.000000000000000e+000 +0.000000000000000e+000   -2.658596665300000e-002 +5.110303841500000e-001   
+1.675000000000000e+001   -4.266505579300000e-001 -4.332285218900000e-002   +0.000000000000000e+000 +0.000000000000000e+000   +0.000000000000000e+000 +0.000000000000000e+000   -1.031920123000000e-002 +4.695570208000000e-001   
+1.700000000000000e+001   -3.628190442200000e-001 +1.300938429700000e-001   +0.000000000000000e+000 +0.000000000000000e+000   +0.000000000000000e+000 +0.000000000000000e+000   -7.958584713500000e-002 +4.607126420400000e-001   
+1.725000000000000e+001   -3.182832513800000e-001 +2.628533098700000e-001   +0.000000000000000e+000 +0.000000000000000e+000   +0.000000000000000e+000 +0.000000000000000e+000   -1.821369461600000e-001 +4.816074720200000e-001   
+1.750000000000000e+001   -1.198245071900000e-001 +3.965461114200000e-001   +0.000000000000000e+000 +0.000000000000000e+000   +0.000000000000000e+000 +0.000000000000000e+000   -3.619604691400000e-001 +4.323645237800000e-001   
+1.775000000000000e+001   +3.016117924200000e-001 +2.711040627000000e-001   +0.000000000000000e+000 +0.000000000000000e+000   +0.000000000000000e+000 +0.000000000000000e+000   -3.203748676400000e-001 +3.713193113300000e-001   
+1.800000000000000e+001   +5.515544659200000e-001 -1.213882501800000e-001   +0.000000000000000e+000 +0.000000000000000e+000   +0.000000000000000e+000 +0.000000000000000e+000   -2.916739367900000e-001 +2.743353455800000e-001   
+1.825000000000000e+001   +3.952871749700000e-001 -3.894626456000000e-001   +0.000000000000000e+000 +0.000000000000000e+000   +0.000000000000000e+000 +0.000000000000000e+000   -3.183630704000000e-001 +1.261821904000000e-001   
+1.850000000000000e+001   +3.424952907200000e-002 -5.237790249900000e-001   +0.000000000000000e+000 +0.000000000000000e+000   +0.000000000000000e+000 +0.000000000000000e+000   -3.636267118200000e-001 -2.778809645000000e-002   
+1.875000000000000e+001   -2.133752818200000e-001 -4.188265149200000e-001   +0.000000000000000e+000 +0.000000000000000e+000   +0.000000000000000e+000 +0.000000000000000e+000   -4.551083172600000e-001 -1.388393900400000e-001   
+1.900000000000000e+001   -3.916906406000000e-001 -1.031932891700000e-001   +0.000000000000000e+000 +0.000000000000000e+000   +0.000000000000000e+000 +0.000000000000000e+000   -4.088271311900000e-001 -2.358057483900000e-001   
+1.925000000000000e+001   -4.048140966200000e-001 +2.036159989600000e-001   +0.000000000000000e+000 +0.000000000000000e+000   +0.000000000000000e+000 +0.000000000000000e+000   -2.299397942100000e-001 -2.379390220400000e-001   
+1.950000000000000e+001   -2.498917515300000e-001 +4.796245810800000e-001   +0.000000000000000e+000 +0.000000000000000e+000   +0.000000000000000e+000 +0.000000000000000e+000   -1.777366203500000e-001 -2.486811385300000e-001   
+1.975000000000000e+001   +1.003748361100000e-001 +5.443275895000000e-001   +0.000000000000000e+000 +0.000000000000000e+000   +0.000000000000000e+000 +0.000000000000000e+000   -1.227280193500000e-001 -3.256236503300000e-001   
+2.000000000000000e+001   +3.667535498000000e-001 +3.113474327700000e-001   +0.000000000000000e+000 +0.000000000000000e+000   +0.000000000000000e+000 +0.000000000000000e+000   +3.471906328400000e-002 -5.005642314800000e-001   
+2.025000000000000e+001   +3.712871384100000e-001 -3.042376008500000e-002   +0.000000000000000e+000 +0.000000000000000e+000   +0.000000000000000e+000 +0.000000000000000e+000   +2.643987476700000e-001 -4.675558815500000e-001   
+2.050000000000000e+001   +1.453436127800000e-001 -2.136540439700000e-001   +0.000000000000000e+000 +0.000000000000000e+000   +0.000000000000000e+000 +0.000000000000000e+000   +3.939927699100000e-001 -2.502224558800000e-001   
+2.075000000000000e+001   -6.949654571900000e-002 -2.843432617900000e-001   +0.000000000000000e+000 +0.000000000000000e+000   +0.000000000000000e+000 +0.000000000000000e+000   +3.615601048700000e-001 -1.337915892900000e-001   
+2.100000000000000e+001   -2.146136866800000e-001 -2.054535627800000e-001   +0.000000000000000e+000 +0.000000000000000e+000   +0.000000000000000e+000 +0.000000000000000e+000   +2.565115751100000e-001 -1.639934306500000e-001   
+2.125000000000000e+001   -2.842950155800000e-001 -1.291727173200000e-001   +0.000000000000000e+000 +0.000000000000000e+000   +0.000000000000000e+000 +0.000000000000000e+000   +3.090737222100000e-001 -2.386722128000000e-001   
+2.150000000000000e+001   -2.687438181700000e-001 +9.364386943400000e-002   +0.000000000000000e+000 +0.000000000000000e+000   +0.000000000000000e+000 +0.000000000000000e+000   +4.374032109900000e-001 -2.125759903600000e-001   
+2.175000000000000e+001   -1.243345543900000e-001 +2.655715859400000e-001   +0.000000000000000e+000 +0.000000000000000e+000   +0.000000000000000e+000 +0.000000000000000e+000   +5.581253824000000e-001 +4.557885442000000e-002   
+2.200000000000000e+001   +1.160161820100000e-001 +2.739796857500000e-001   +0.000000000000000e+000 +0.000000000000000e+000   +0.000000000000000e+000 +0.000000000000000e+000   +3.050568848100000e-001 +4.486579528800000e-001   
