# GHz S RI R 50
!
+2.500000000000000e-001   -9.659387425100000e-003 -3.645460888200000e-002   +9.942302558000000e-001 +1.157600367400000e-001   -9.409905539300000e-001 -2.658487313100000e-001   +4.010211273300000e-002 -5.836570880500000e-002   
+5.000000000000000e-001   +1.264203556700000e-001 -8.033277756100000e-002   +9.309827047700000e-001 +2.330059363200000e-001   +7.415310075500000e-001 +5.727953588500000e-001   +6.389171537600000e-002 -3.391452551200000e-002   
+7.500000000000000e-001   +3.360762535000000e-002 -1.821738254300000e-001   +8.966098776500000e-001 +3.484878507700000e-001   -5.586707597900000e-001 -7.294498568700000e-001   +3.382232920000000e-002 +1.314460770900000e-001   
+1.000000000000000e+000   +1.375439832700000e-001 -6.112407885200000e-002   +7.984121783100000e-001 +4.597007363000000e-001   +1.761282075000000e-001 +9.005754356900000e-001   +1.132631050600000e-001 -1.297650173100000e-001   
+1.250000000000000e+000   -1.249913024700000e-001 -6.030812096300000e-002   +7.242592294000000e-001 +5.637886671900000e-001   +1.871516709500000e-001 -8.917178722100000e-001   -4.047761736700000e-002 -1.673653840400000e-002   
+1.500000000000000e+000   +1.232553655300000e-003 +4.148454338700000e-002   +6.288574846600000e-001 +6.531701084800000e-001   -5.856999667900000e-001 +6.914816723500000e-001   +6.512344692100000e-002 +7.961378103200000e-002   
+1.750000000000000e+000   +4.115399394000000e-002 -4.539641482100000e-002   +5.369912317900000e-001 +7.259392465100000e-001   +7.653204399600000e-001 -4.434285479800000e-001   +3.382906371800000e-002 -1.010695194400000e-001   
+2.000000000000000e+000   -2.118244657300000e-002 +4.876494701100000e-002   +4.236613492300000e-001 +7.925983339400000e-001   -8.822191801700000e-001 +8.952403929100000e-002   -6.591865379600000e-002 +8.432456426300000e-002   
+2.250000000000000e+000   +8.175852733300000e-003 -1.259833431800000e-003   +3.028871059200000e-001 +8.336427596100000e-001   +8.368521761600000e-001 +2.539934116400000e-001   +1.068496399500000e-002 -4.708386968000000e-004   
+2.500000000000000e+000   -1.593167747200000e-002 -7.026053979500000e-002   +1.927498211200000e-001 +8.716273852900000e-001   -6.285092331000000e-001 -6.146677461200000e-001   +7.957986044900000e-002 -3.800880413000000e-002   
+2.750000000000000e+000   +2.230560497700000e-003 +6.445298511100000e-002   -3.962205650800000e-001 +7.847424072300000e-001   -7.115901125700000e-001 +4.678972879400000e-001   -2.318317151200000e-002 +1.448926819500000e-001   
+3.000000000000000e+000   +5.495045904400000e-002 -1.322617077200000e-001   -7.705175597400000e-001 +3.261306153100000e-001   +2.079683780400000e-002 +8.335575233100000e-001   -1.063654883500000e-001 +8.898575007300000e-002   
+3.250000000000000e+000   -6.273976957000000e-003 -3.491531826000000e-002   -8.083722506200000e-001 -2.204670326900000e-001   +6.995196456300000e-001 +4.314449846600000e-001   -1.326903699300000e-001 +1.105608446900000e-001   
+3.500000000000000e+000   +3.934910082900000e-002 -3.122951863800000e-002   -4.874604240600000e-001 -6.887064271500000e-001   +5.341023551700000e-001 -5.814580636200000e-001   -2.559863290500000e-002 -3.626956151000000e-002   
+3.750000000000000e+000   +4.634483895000000e-002 +2.623953885700000e-003   +1.252155749900000e-001 -8.253691024300000e-001   -2.509601656300000e-001 -7.394936020800000e-001   +8.657546782300000e-002 +1.149828753300000e-002   
+4.000000000000000e+000   +9.426851849300000e-002 -1.395185814500000e-001   +5.843972220600000e-001 -5.352913402000000e-001   -7.547201262200000e-001 +1.347889914400000e-001   +1.021620700400000e-001 -2.469349693900000e-002   
+4.250000000000000e+000   +1.493227308200000e-003 +4.479206481400000e-002   +7.831076843600000e-001 -8.129224626000000e-002   -1.330737194500000e-001 +7.545963053700000e-001   +5.099070482700000e-002 -1.718249212100000e-002   
+4.500000000000000e+000   +8.576239969900000e-002 +2.719594381100000e-002   +6.778056192200000e-001 +3.869449333000000e-001   +6.228828200000000e-001 +4.080013180400000e-001   -9.847705602200000e-002 -9.365928787500000e-003   
+4.750000000000000e+000   +1.744095776400000e-001 +1.699079873500000e-002   +2.591268900000000e-001 +7.424759430200000e-001   +6.509096557800000e-001 -4.033893454300000e-001   -4.434888418200000e-002 -5.749329466000000e-002   
+5.000000000000000e+000   +4.749693003600000e-002 -7.335438015200000e-002   -3.773777849200000e-001 +6.567748798400000e-001   +1.582740247300000e-001 -7.039059481400000e-001   -6.435097816400000e-002 +6.272422408600000e-003   
+5.250000000000000e+000   +2.950150954600000e-002 +5.077789716600000e-002   -7.476622979600000e-001 +2.388513210700000e-001   -4.504985309300000e-001 -5.595683081000000e-001   +6.222937864200000e-003 +8.958762268500000e-002   
+5.500000000000000e+000   +1.487985896300000e-002 +9.846718443100000e-002   -7.093054273300000e-001 -2.369194136000000e-001   -5.638883034700000e-001 +3.956361165400000e-001   -2.649992683200000e-002 +1.227670735200000e-001   
+5.750000000000000e+000   +4.187167959700000e-002 -7.502942532000000e-002   -4.501119862900000e-001 -6.249464618400000e-001   +1.596344666800000e-001 +6.704083398900000e-001   +1.831558062300000e-002 +2.949639549300000e-002   
+6.000000000000000e+000   -1.345704179100000e-001 +4.864914847400000e-003   +6.436502235600000e-002 -7.522948612000000e-001   +6.099238773300000e-001 +2.566823247700000e-001   +6.157227168800000e-002 -8.183797783500000e-002   
+6.250000000000000e+000   -1.616986184000000e-001 +8.375949764600000e-002   +5.652877802700000e-001 -4.700245452000000e-001   +4.425272729000000e-001 -5.082960786400000e-001   +1.609965372800000e-001 -9.353834979400000e-002   
+6.500000000000000e+000   -3.637842744700000e-003 +9.458922671700000e-002   +7.176335461700000e-001 +7.945967683600000e-002   -2.815765727900000e-001 -5.882583736900000e-001   +1.099725895000000e-001 -7.321269298400000e-002   
+6.750000000000000e+000   -5.750481224200000e-002 +6.176460375000000e-003   +5.078521999100000e-001 +4.771430925700000e-001   -6.560892883200000e-001 +1.428798375800000e-001   +8.034949531900000e-002 -2.612931709700000e-003   
+7.000000000000000e+000   -1.407074085300000e-001 -2.427558398900000e-002   +2.298672279100000e-001 +6.216743055600000e-001   +7.067914220300000e-003 +6.334377822200000e-001   -2.441719356900000e-002 +8.016130274900000e-002   
+7.250000000000000e+000   -9.974329698100000e-002 +1.210902384800000e-001   -2.418988160800000e-001 +6.577099956200000e-001   +5.739889725900000e-001 +3.209104507900000e-001   -6.828626226000000e-002 +1.058013350500000e-001   
+7.500000000000000e+000   -7.819838698100000e-002 +4.912912409900000e-002   -6.158498707600000e-001 +2.911243197000000e-001   +6.877763225000000e-001 -1.420278702100000e-001   -1.215623131100000e-001 +8.737467425100000e-002   
+7.750000000000000e+000   -4.102997418000000e-002 -7.489765243900000e-003   -5.850970239000000e-001 -2.570788761000000e-001   +3.358325548800000e-001 -6.332503428000000e-001   -1.079962136000000e-001 -8.882531294800000e-003   
+8.000000000000000e+000   -1.364555446700000e-001 +2.796209187300000e-002   -2.546605095700000e-001 -5.635446876500000e-001   -4.695196326000000e-001 -5.257911725200000e-001   -2.375108381900000e-002 -1.683306745900000e-002   
+8.250000000000000e+000   -4.098868223100000e-002 +6.643618784400000e-002   +1.142324783000000e-001 -5.671379651800000e-001   -5.698209608700000e-001 +4.028886278000000e-001   +9.680746574200000e-003 -4.866985131400000e-002   
+8.500000000000000e+000   +2.245446990800000e-002 +4.178362390200000e-002   +4.619089264800000e-001 -3.961259336000000e-001   +2.155292549000000e-001 +6.930413099300000e-001   +4.232405795200000e-002 -4.921909890900000e-002   
+8.750000000000000e+000   -6.386723659200000e-002 -6.721567562600000e-002   +6.218289481200000e-001 +4.477032368000000e-002   +6.561423955700000e-001 +2.453388280200000e-001   -5.263039502200000e-002 -3.191830726600000e-002   
+9.000000000000000e+000   -6.852365556200000e-002 +3.701254643400000e-002   +3.808008858600000e-001 +4.627429169200000e-001   +4.045849132400000e-001 -5.508978527000000e-001   -6.144861923800000e-002 -4.093739949700000e-002   
+9.250000000000000e+000   -2.433254322900000e-003 +1.976083356400000e-002   -2.909512297200000e-003 +5.843743374700000e-001   -3.802487199700000e-001 -5.605714868600000e-001   -1.213992472500000e-001 -5.587804467800000e-002   
+9.500000000000000e+000   +4.959932087200000e-002 -2.159063571900000e-002   -2.845788594500000e-001 +4.782396576500000e-001   -6.731474754700000e-001 +3.675341347000000e-002   -7.933119978600000e-002 -4.153186367300000e-003   
+9.750000000000000e+000   +5.095468169100000e-002 -8.186888519700000e-002   -5.093645132100000e-001 +2.615282036600000e-001   -2.870016861000000e-001 +5.962436642100000e-001   -1.063442091800000e-001 +9.009290070300000e-002   
+1.000000000000000e+001   +4.760779847100000e-002 -9.134304119500000e-002   -5.791906894300000e-001 -2.043301655200000e-001   +2.074589490600000e-001 +6.169873248100000e-001   -1.575906333400000e-001 +7.707174741900000e-002   
+1.025000000000000e+001   +4.641556764700000e-002 -9.839703618900000e-002   -2.464199874800000e-001 -5.433085819700000e-001   +5.902151410200000e-001 -1.610241564400000e-001   -1.727855936000000e-001 -3.294198088300000e-002   
+1.050000000000000e+001   -8.301197982600000e-003 -9.351948506700000e-002   +2.140094448100000e-001 -5.378075750200000e-001   +3.855608557200000e-003 -6.060883917800000e-001   -5.598799418900000e-002 -1.171519488000000e-001   
+1.075000000000000e+001   +7.359705185400000e-002 -4.653941845800000e-002   +4.788223205200000e-001 -3.288376846500000e-001   -5.106737971900000e-001 -3.159854011900000e-001   +1.141863837400000e-001 -1.532606011600000e-001   
+1.100000000000000e+001   +6.982188949000000e-002 +3.278110419000000e-002   +6.058313366600000e-001 -3.323387259400000e-002   -3.628389297800000e-001 +4.220057544900000e-001   +1.330535284100000e-001 -3.733876499900000e-002   
+1.125000000000000e+001   +1.668953942200000e-001 +6.179030304500000e-003   +4.717269957600000e-001 +3.955727567900000e-001   +1.150374208000000e-001 +5.303388758800000e-001   +4.343784457200000e-002 +7.710956765900000e-002   
+1.150000000000000e+001   +1.381001566000000e-001 +8.154893460300000e-002   +4.166968451700000e-002 +5.784460118000000e-001   +5.149681132400000e-001 +2.546155131300000e-001   -1.121396319200000e-001 +3.366907412500000e-002   
+1.175000000000000e+001   +1.785871430600000e-001 +1.660992573400000e-004   -3.290329664000000e-001 +4.125567530900000e-001   +3.446958745000000e-001 -4.514060243100000e-001   -1.585946580100000e-001 -4.247299511100000e-002   
+1.200000000000000e+001   +1.137366286300000e-001 -5.091986443900000e-002   -5.053569744400000e-001 +1.752496253500000e-001   -3.675256954800000e-001 -4.485678294500000e-001   -1.384354610300000e-001 -9.601584977800000e-002   
+1.225000000000000e+001   -6.262921875700000e-004 -1.128137062800000e-001   -5.222475852900000e-001 -1.058970559200000e-001   -5.263009634700000e-001 +1.267728503300000e-001   -5.053643626900000e-002 -3.716031527200000e-002   
+1.250000000000000e+001   -9.838071505400000e-002 -1.571802725800000e-002   -3.558215493500000e-001 -4.612852854200000e-001   -2.872658119700000e-001 +4.256236286700000e-001   -1.166805929900000e-001 +7.610126140000000e-003   
+1.275000000000000e+001   -1.356213992300000e-001 +2.370192489600000e-002   +9.943224174000000e-002 -5.641336181900000e-001   +2.028506323500000e-001 +4.916522792500000e-001   -1.443727175100000e-001 -7.532902358100000e-002   
+1.300000000000000e+001   -6.099202665300000e-004 +8.059046778500000e-002   +4.237535946500000e-001 -3.511933134500000e-001   +4.761721965400000e-001 -2.386635455500000e-001   -1.637727480600000e-001 -1.006196629800000e-001   
+1.325000000000000e+001   -5.424959353300000e-002 +1.910703605900000e-002   +4.959395690400000e-001 -8.277470195200000e-002   -1.240216865200000e-001 -4.698426588600000e-001   -2.399582901500000e-002 -9.718309946200000e-002   
+1.350000000000000e+001   -7.089819018300000e-002 -4.109784265700000e-002   +5.043512906200000e-001 +1.971933155300000e-001   -4.378937380000000e-001 -1.417142490300000e-001   +7.612311210400000e-002 -3.111337270500000e-002   
+1.375000000000000e+001   -1.110710950100000e-001 +2.683727876800000e-002   +2.469585876600000e-001 +5.344063921300000e-001   -4.127116495100000e-001 +2.278197423100000e-001   +1.236639787600000e-001 +9.861434143200000e-002   
+1.400000000000000e+001   +5.285492642200000e-003 +1.078679943700000e-002   -2.497551786300000e-001 +4.985761793300000e-001   +2.126984018600000e-001 +4.325240931400000e-001   +1.000914906200000e-001 +7.332185271100000e-002   
+1.425000000000000e+001   +2.362701557300000e-002 -3.596418222600000e-002   -4.727509691600000e-001 +1.811207336700000e-001   +5.017175709600000e-001 -7.001577600400000e-003   +9.904174053100000e-003 +2.630347983600000e-002   
+1.450000000000000e+001   +7.699114538800000e-003 -3.530248727100000e-002   -4.744544376700000e-001 -9.713389209600000e-002   +1.763758919400000e-001 -4.617503559400000e-001   +8.959837914000000e-003 -9.574216170500000e-003   
+1.475000000000000e+001   +7.761656186800000e-002 +3.093577069100000e-002   -3.553093876200000e-001 -3.313286811100000e-001   -3.830296035300000e-001 -3.132929430500000e-001   -6.198313127700000e-003 +2.057899839000000e-002   
+1.500000000000000e+001   +1.382346063800000e-001 -2.847633136700000e-002   -2.851384547400000e-002 -4.911797594800000e-001   -4.846993551000000e-001 +1.529436182600000e-001   -3.337695640400000e-002 +6.916107115400000e-002   
+1.525000000000000e+001   +1.195608214800000e-001 -7.670482662900000e-002   +3.639127122700000e-001 -3.721635437400000e-001   -4.478196920400000e-002 +5.161863875500000e-001   -5.201903520700000e-002 +9.674282104100000e-002   
+1.550000000000000e+001   -5.771222337500000e-002 -3.521270641000000e-002   +4.777694512300000e-001 -3.429541338400000e-002   +4.152175633500000e-001 +2.915172245400000e-001   -2.092052473000000e-002 +5.351065263500000e-002   
+1.575000000000000e+001   +2.028734739800000e-002 +1.106156454700000e-001   +3.802991063100000e-001 +2.321017572000000e-001   +4.258563585200000e-001 -2.451899741700000e-001   +1.601893914200000e-002 +1.066465598700000e-001   
+1.600000000000000e+001   +8.377547402700000e-002 +1.012839196000000e-001   +2.100356973600000e-001 +4.053060195600000e-001   -1.335525584100000e-001 -4.720997839700000e-001   +1.125291238100000e-002 +7.933988740800000e-002   
+1.625000000000000e+001   +6.893067772800000e-002 +1.106758637600000e-002   -1.504815851400000e-001 +4.641348505900000e-001   -4.461269411000000e-001 -1.296024567700000e-001   -8.705599055800000e-002 +3.305817299600000e-002   
+1.650000000000000e+001   -1.819723967500000e-002 +1.902767184100000e-002   -4.424058027600000e-001 +2.059695229400000e-001   -3.085302906100000e-001 +3.526832752000000e-001   -1.264426326700000e-001 -4.776299633600000e-002   
+1.675000000000000e+001   -8.014627079500000e-003 +8.933012888700000e-003   -4.609315736500000e-001 -1.331754801500000e-001   +2.841164170400000e-001 +3.802062418700000e-001   -1.212819249200000e-001 -6.495342998900000e-002   
+1.700000000000000e+001   +1.940002209900000e-002 -9.708100502200000e-002   -2.649290474300000e-001 -3.524481154600000e-001   +4.454925157400000e-001 -3.303308876800000e-002   -4.480479170300000e-002 +1.540473974200000e-002   
+1.725000000000000e+001   -9.806169109200000e-002 -1.746334567500000e-001   -3.406950976600000e-002 -4.461626110800000e-001   +2.154417812700000e-001 -3.894969963600000e-001   -7.654176699700000e-002 +9.412536487900000e-002   
+1.750000000000000e+001   -1.899727754000000e-001 -1.395965343900000e-001   +3.138460581300000e-001 -3.670371703300000e-001   -1.783982610300000e-001 -4.324374053500000e-001   -7.883199044000000e-002 +1.300362356100000e-001   
+1.775000000000000e+001   -1.045240421300000e-001 -2.284847810600000e-004   +4.713757662300000e-001 -3.974402808200000e-002   -4.059297332400000e-001 +1.859245136500000e-001   -9.892212158500000e-003 +7.711105576400000e-002   
+1.800000000000000e+001   +6.635345421000000e-002 -1.205717601100000e-003   +3.870581987700000e-001 +2.685775766200000e-001   +5.289940157100000e-002 +4.510733982500000e-001   +1.088880833000000e-001 +5.079934453000000e-002   
+1.825000000000000e+001   +1.506736526200000e-001 -1.119903198900000e-001   +1.303534627700000e-001 +3.826889819100000e-001   +3.549391412800000e-001 +2.405253109300000e-001   +1.705483417500000e-001 +1.122282394500000e-001   
+1.850000000000000e+001   +4.658209886800000e-002 -1.720405181000000e-001   -1.266771383100000e-001 +3.823116738500000e-001   +3.839131239400000e-001 -1.843270051500000e-001   +1.229878965500000e-001 +1.051976590700000e-001   
+1.875000000000000e+001   -3.927097748600000e-002 -1.346507719600000e-001   -3.804196459700000e-001 +2.181539541100000e-001   -2.313107649400000e-002 -4.403143483200000e-001   +3.845158920400000e-002 +3.930131723100000e-002   
+1.900000000000000e+001   -1.627978785800000e-002 +5.983200511600000e-002   -4.263330683400000e-001 -9.383700916900000e-002   -4.271758752000000e-001 -1.144152920300000e-001   +2.979354907600000e-002 -4.057793261700000e-002   
+1.925000000000000e+001   +3.254793446800000e-002 +1.095991977900000e-001   -2.102977112500000e-001 -3.268486523400000e-001   -2.524040863600000e-001 +3.251182079100000e-001   +4.666125355300000e-002 -5.613397013900000e-002   
+1.950000000000000e+001   +4.226083044100000e-002 +1.015958693400000e-001   +4.159380797600000e-002 -3.695943340700000e-001   +1.764058514500000e-001 +3.687709416100000e-001   +1.361012970600000e-002 +1.261560984600000e-003   
+1.975000000000000e+001   +1.770033835100000e-002 +7.753623083500000e-002   +2.234882200600000e-001 -3.049213446100000e-001   +4.116066071800000e-001 +4.527048463700000e-002   -2.544967043600000e-002 -2.523794786200000e-002   
+2.000000000000000e+001   -3.594150073900000e-002 +1.090703217300000e-001   +4.051204816800000e-001 -8.525252766600000e-002   +1.791069407700000e-001 -4.091139433900000e-001   -3.614986240600000e-002 -9.137369796600000e-002   
+2.025000000000000e+001   -1.967996968600000e-002 +5.987378631800000e-002   +3.218627682400000e-001 +2.446126922600000e-001   -3.100447732800000e-001 -2.816928012800000e-001   +6.702592614000000e-002 -7.042199007100000e-002   
+2.050000000000000e+001   -8.941862309100000e-002 +3.471035941300000e-002   +6.709204215100000e-002 +3.710090325800000e-001   -3.484401319700000e-001 +1.053939696700000e-001   +1.078792577600000e-001 +3.738681150500000e-002   
+2.075000000000000e+001   -1.753386698400000e-001 +1.587546588900000e-002   -1.831357152000000e-001 +3.288761025400000e-001   -9.996638761600000e-002 +3.892992144100000e-001   -1.962403479900000e-003 +1.504357597800000e-001   
+2.100000000000000e+001   -1.132178433700000e-001 +1.272016763600000e-001   -3.282907470400000e-001 +1.929939940400000e-001   +2.894060843000000e-001 +2.647619216400000e-001   -9.320341774800000e-002 +7.988984336200000e-002   
+2.125000000000000e+001   +2.160080136600000e-002 +7.233192498500000e-002   -3.974631187100000e-001 -1.788437892700000e-002   +3.569924154800000e-001 -1.520064316500000e-001   -4.313121476700000e-002 -5.045919576000000e-002   
+2.150000000000000e+001   +1.549102113300000e-001 -2.757559244700000e-002   -2.392868016900000e-001 -2.881856587800000e-001   -1.590434221200000e-001 -3.243999282100000e-001   +1.345075760100000e-001 -9.670546462500000e-002   
+2.175000000000000e+001   +8.709516188700000e-002 -1.236838964300000e-001   +5.241113939900000e-002 -3.381466816200000e-001   -3.498723404900000e-001 -4.114570357400000e-002   +2.923560514800000e-001 +5.502422864500000e-003   
+2.200000000000000e+001   +8.730013108300000e-002 -1.063187349000000e-001   +2.450069701500000e-001 -2.324468716700000e-001   -3.169864875000000e-001 +1.768808915200000e-001   +1.292054048500000e-001 +2.061184109000000e-001   
