!Created with skrf (http://scikit-rf.org).
# GHz S RI R 50.0 
!freq ReS11 ImS11
0.25 0.4679972992940689 0.27823473893140416
0.5 0.06216832016681745 0.056606190804742565
0.75 -0.11551940535654745 -0.20122223497705716
1.0 0.017427357413558563 -0.056910227232288634
1.25 -0.07325456761163011 -0.07942783390341837
1.5 -0.04132017219997488 0.024625186867204933
1.75 0.02718815352162946 0.034594749704283216
2.0 0.05570009039666225 -0.03333220440317285
2.25 -0.002970858700787555 -0.02867498250072184
2.5 -0.022017616654830402 0.01294864495496103
2.75 0.053348788595631864 0.01803613350338818
3.0 0.08443618372279764 -0.03577275348454821
3.25 0.0364078807688 -0.07686815909926975
3.5 -0.00023022377600113823 -0.02502072107674507
3.75 0.04934597758813154 -0.004676276288521585
4.0 0.045927650592870184 -0.02693966603265338
4.25 0.03848935337973167 0.014027860504543882
4.5 0.07194720421580587 0.028309509679162462
4.75 0.10023220768802286 -0.022264939846796346
5.0 0.009412548476390201 -0.026173165287655745
5.25 -0.02705745111565632 0.03448794156241225
5.5 0.01330802250541385 0.05499127562227104
5.75 0.0005551705102059597 -0.021477227483977936
6.0 -0.08492393289295253 -0.032887788401090724
6.25 -0.11140510496569034 0.04138571835537916
6.5 -0.03861271153773523 0.04101965410684209
6.75 -0.05219887096373191 -0.02496503675188063
7.0 -0.10671081104126963 0.026889955389166373
7.25 -0.08194915375708312 0.08162450284809578
7.5 -0.007909781615395028 0.05333291065933182
7.75 -0.033019504023561394 -0.03912775273100448
8.0 -0.11808555006592386 -0.013282475494183307
8.25 -0.0674300020458829 0.09046087258721977
8.5 -0.015081836977538886 0.043996746236610776
8.75 -0.0720010294514786 -0.011298438197556765
9.0 -0.08636583551731952 0.039312716071894516
9.25 -0.020033892537613434 0.06042922368058517
9.5 0.04258255578019965 -0.013707138789361507
9.75 0.015337245625477754 -0.05127699261111278
10.0 0.05096921014556635 -0.05123806854776855
10.25 0.07189748249202774 -0.08937377602472356
10.5 0.05019400020096687 -0.13915660319204579
10.75 -0.018004854083487246 -0.0734798401803237
11.0 0.05448486727182995 0.04150010744649195
11.25 0.16668096603932345 0.057177675383518825
11.5 0.18743838759064982 0.047757488029126216
11.75 0.14532977256987162 -0.019559382316067728
12.0 0.07106846893340804 -0.05937450493479748
12.25 -0.0015597784180727114 -0.06684053724845956
12.5 -0.12026045361437036 -0.03291751358062932
12.75 -0.15563966604059254 0.0694932423268663
13.0 -0.05182871677510365 0.11983979572987141
13.25 0.0034018376625845536 0.03996563922895768
13.5 -0.0714633553488479 -0.027183998594598913
13.75 -0.11081314090791451 -0.012459428464900404
14.0 -0.04841523548821706 0.031923291707258876
14.25 0.02192227466442908 -0.001506239080976985
14.5 0.05655733742868123 -0.015490615405311237
14.75 0.0828264309718189 -0.0539330797581572
15.0 0.11270990358422628 -0.047878922094200346
15.25 0.06407611256548934 -0.07072165255832655
15.5 -0.01058785742844692 -0.011236655165980613
15.75 -0.0006728541952806949 0.0718443331223888
16.0 0.04166510944314569 0.10281799597511806
16.25 0.049884427310070645 0.09561395521162443
16.5 0.025774259815585593 0.07422161464253949
16.75 0.04463155181803361 0.01156519860734054
17.0 0.017473656855919548 -0.09756909195689098
17.25 -0.1078712203487498 -0.14356920509175744
17.5 -0.17405658084291417 -0.10056638762446059
17.75 -0.10388779796892429 0.02350170798282495
18.0 0.061261193616280865 0.003491755291989522
18.25 0.11401131011821115 -0.06929418448983543
18.5 0.0515735642501486 -0.12983754182019938
18.75 -0.004839316689476229 -0.08177911353967124
19.0 -0.010286060308181567 0.014992717807370912
19.25 -0.004925203225512521 0.08536687840318624
19.5 -0.0009677516318767551 0.13116207548254585
19.75 0.03255250869976709 0.1154602389059138
20.0 -0.00047566370135419117 0.0632154591410103
20.25 -0.07102774238802648 0.03375296617849421
20.5 -0.13275873701561314 0.04233299346892195
20.75 -0.13982881225529434 0.1050603500173282
21.0 -0.0431519723539395 0.10018053434175875
21.25 0.05922661285045376 0.05089274906099156
21.5 0.13445568679251071 -0.023960877094744766
21.75 0.14844185793003442 -0.08193916725443398
22.0 0.13509513464332545 -0.10556160019282704
22.25 0.01862042200355341 -0.050663453945088296
22.5 0.032229896215790754 0.13677454162783348
22.75 0.18502541474450124 0.1765429554660311
23.0 0.23934862419695183 0.11902969861310454
23.25 0.17436851466217448 0.024818176474823136
23.5 -0.002888146778050306 -0.03610024641102731
23.75 -0.12420519767137961 -0.013782424511783877
24.0 -0.1481015051155563 0.021882928846991674
24.25 -0.11540284851972886 -0.03249703872117045
24.5 -0.05855499420699664 -0.11610442327542822
24.75 -0.02407433767643786 -0.15646691252694978
25.0 -0.06123503967061838 -0.1901191641854184
25.25 -0.0359599461555046 -0.14509267503105092
25.5 0.06097486609747927 -0.1398886086386623
25.75 0.1108454262239784 -0.025704800530829186
26.0 0.09146237557047561 0.005290910814397509
26.25 0.1676682123737373 0.06795910419260423
26.5 0.24631564429824157 0.04009342900730331
26.75 0.18974426958580243 0.04242319322811201
27.0 -0.004175805849378281 0.10137868821823584
27.25 -0.15676435315764323 0.11832687383339856
27.5 -0.1545546790830083 0.2877922423592336
27.75 -0.04065025519355442 0.23610347100363852
28.0 -0.07829560711558037 0.09713339431022386
28.25 -0.1161205556793074 -0.10455475366851215
28.5 -0.12114334114181866 -0.17868774637837337
28.75 -0.18691332487177867 -0.12156752917279279
29.0 -0.13521350056664014 -0.04765608860175343
29.25 -0.033677538276189516 -0.07878279617780612
29.5 0.06970289795658019 -0.08784623295552113
29.75 0.03605718864227956 -0.03949335194453475
30.0 0.04236181945082593 0.04077596200251398
30.25 0.05397615804056481 0.018037570461147522
30.5 -0.027673540182400713 0.011653251513714075
30.75 -0.14079232130133848 -0.0721916615231396
31.0 -0.24692670631354377 -0.05838956572031389
31.25 -0.18891810287930694 0.04704623755976145
31.5 -0.18445947907353138 -0.04972695711591821
31.75 -0.26892718419168515 -0.21495254909765696
32.0 -0.012006023894041193 -0.3125608841819488
32.25 0.0398862356205929 -0.22535356464352507
32.5 0.06082297912429781 -0.1869285257010191
32.75 0.14331354979381966 -0.20345032109711528
33.0 0.29842026551502776 -0.15434018313543352
33.25 0.2830121292476535 0.15797789627144604
33.5 0.18746444092203757 0.1681069233242429
33.75 0.19288559999760715 0.22677736437865395
34.0 0.3271528723373084 0.20995083977869755
34.25 0.17951883797177404 0.30329119935199317
34.5 -0.16119858039924484 0.16619072066879398
34.75 -0.15416333354216846 0.12359282411521774
35.0 -0.04562423244911453 0.12247022297076032
35.25 -0.11376029046872936 0.0068605844197634006
35.5 -0.19243634031739995 -0.09045160202775578
35.75 -0.013325768828149879 -0.03368992007191636
36.0 -0.0025412155055969665 -0.06832143518610698
36.25 -0.0077790962784580545 -0.05756238247285621
36.5 0.012648872500254892 -0.012683031778976702
36.75 0.034057198305428145 -0.008430381170344066
37.0 0.027704711057754454 0.009418498539025722
37.25 0.03600689023355447 0.031926574777758294
37.5 0.015685789399641437 0.02897429709412904
37.75 -0.019125877271602552 0.04126501063486245
38.0 -0.022139070566445568 0.04503240087423861
38.25 -0.02795383021131515 0.0004929823334924996
38.5 -0.027740090609008495 -0.03248968869641541
38.75 0.0034912464594400684 -0.03711895100931366
39.0 0.04371709361205718 -0.0124775245964861
39.25 0.022898704628869768 0.02164318589668642
39.5 -0.029134870405321832 0.02365142145008514
39.75 -0.02544393489703616 -0.006224554431630974
40.0 0.008116987447777746 -0.027846746459087128
