!Created with skrf (http://scikit-rf.org).
# GHz S RI R 50.0 
!freq ReS11 ImS11
0.25 0.26504977191417844 -0.36796294008406877
0.5 0.0847361959922231 0.13300499620601905
0.75 0.1354890558470995 -0.29735485758161406
1.0 -0.006315630338954308 -0.06661363548162576
1.25 0.009875474234283466 0.06112083023359359
1.5 -0.02589180388460057 0.016945832954132368
1.75 -0.04243998366960412 0.08815972450286344
2.0 0.022763291760636552 0.1036937992750142
2.25 0.03177717232671736 0.021987661071680643
2.5 0.018597897760226526 -0.0003588346270301636
2.75 0.04839118727940303 0.07690134134665613
3.0 0.10457858878279663 0.09457939330151133
3.25 -0.02008893323045166 -0.0036390045781505625
3.5 0.029560356144683598 0.0015012516393586393
3.75 -0.012929444219720454 -0.12490715451426423
4.0 -0.00019181177815110959 -0.032395323455061034
4.25 -0.06485564198243753 0.006694477233146152
4.5 0.09168565461345325 0.05304202889267575
4.75 -0.04445578279412281 0.0509921362528773
5.0 0.10925274003608279 0.08636930483893186
5.25 -0.08053075763740672 0.00938649019783791
5.5 0.06974835792462665 -0.09339234499283387
5.75 -0.10965318806131381 -0.020680255957139505
6.0 0.08856960094840853 0.02187273656775677
6.25 -0.022706724817086604 0.10692687573768644
6.5 0.12997054544169798 0.053361155977786415
6.75 -0.016820732978557712 0.023567070344838178
7.0 0.09280875117898457 -0.1293532195767213
7.25 -0.10682123959272746 -0.11330077797967
7.5 0.01796376448141887 -0.11137686018673817
7.75 -0.07731150399386874 0.03575213141458584
8.0 0.027964257533063544 -0.003926891365471023
8.25 -0.03648974909017428 0.09561934420872088
8.5 0.0661298854665191 0.01468230802407891
8.75 -0.028519273049395444 -0.023897238586001117
9.0 0.09565313287496838 -0.015080336107285246
9.25 -0.021649364786360065 0.005562300199876334
9.5 0.040895585269296215 0.01766387786188374
9.75 -0.010678687343347475 0.04938324345767667
10.0 0.0919074126937155 -0.021384181368931582
10.25 0.07718870870798239 -0.012155577852300828
10.5 0.01494659707019215 -0.07565660770986854
10.75 -0.017899919485982775 0.011094064694811492
11.0 -0.03153898933434734 -0.04711624739830975
11.25 -0.05860882119608409 0.0328751677208585
11.5 -0.0179976297870135 -0.010927965578766088
11.75 -0.06477687364380315 0.13418178689344878
12.0 0.05187288392437017 0.06162870473406082
12.25 0.03646939086728314 0.06097644250707654
12.5 0.02650756180217756 -0.040489311542163245
12.75 -0.0010023579809569335 0.018186870666639838
13.0 -0.047894649014595954 0.02016200102310204
13.25 -0.02270237204846459 0.054177277682264456
13.5 0.04454168641836042 -0.03719141982006151
13.75 0.032086809792841516 0.025115609804541746
14.0 0.12461931537693495 0.04053111611137617
14.25 0.1264535542372011 0.09854510722474337
14.5 0.1380715186324561 -0.07692805485623253
14.75 0.029306848875846284 -0.02291722941558578
15.0 0.025278315089467075 -0.0705122037527675
15.25 -0.012875009893233366 0.056206644759744004
15.5 0.08637320684170556 0.030983368591603402
15.75 0.06647059286615772 0.04204261918310534
16.0 0.122021995177509 0.008562424873648028
16.25 0.02186532771115101 -0.04136626247542432
16.5 -0.029564286317416432 -0.07680332230622604
16.75 0.0006870853642002243 -0.05312456976176798
17.0 0.023451737041942432 0.01622210427146954
17.25 0.06994612902102876 0.12252682855469268
17.5 0.06417537252032793 0.07675278799537807
17.75 0.026799598479544877 0.036592263444293324
18.0 0.10102018732488578 -0.056110545577596656
18.25 0.04454431191840013 -0.11656575780026689
18.5 -0.03429929502211075 -0.11947773567172597
18.75 -0.11637599615040121 -0.006569163044757201
19.0 -0.04993231013225799 0.05353306454828
19.25 0.07276424257087596 0.06815121493991837
19.5 0.10636784825360926 0.022475615532557745
19.75 0.09062816659422686 0.005710031481202679
20.0 0.06425636279438432 -0.011692285773923384
20.25 0.1375363078234951 -0.047654818822629674
20.5 0.06607204140084191 -0.0797863811569279
20.75 -0.016972874721967218 -0.017366282797579503
21.0 -0.0828430902923147 -0.00033974552596609253
21.25 0.04808230500918369 0.1236265062012173
21.5 0.18805147886869172 0.047685903049259196
21.75 0.2463346160164408 -0.040193640596580024
22.0 0.14416729403919504 -0.17966336737079586
22.25 0.044102896793363766 -0.1437269243424193
22.5 -0.04122460767252695 -0.08277833875883069
22.75 -0.13275774160236672 0.12349144737680337
23.0 -0.11745558316339393 0.20410678851918584
23.25 0.02413671210719342 0.19988699754270206
23.5 0.11335959218688937 0.044989918306820455
23.75 0.19058147402677306 -0.04075694285942365
24.0 0.05706608915424205 -0.1862312200219277
24.25 -0.02515888973739087 -0.1306017152802157
24.5 -0.0954455838184205 -0.06688166647055714
24.75 -0.02585535517057282 0.10932059769995554
25.0 0.05055494782441661 0.15275956630111703
25.25 0.14733355697770364 0.12616799411685134
25.5 0.17657227499589573 -0.03167654374689228
25.75 0.1462690474048336 -0.10317203005516273
26.0 -0.018199733659312177 -0.12279450960563672
26.25 -0.1496014362024314 -0.0377706962851479
26.5 -0.13460956495768747 -0.021985556710902972
26.75 0.009058754326770753 -0.030480550721624332
27.0 0.14044964672370683 0.0008884559690646478
27.25 0.2606620093423777 -0.011423558058399341
27.5 0.21711460902065632 -0.09598129089339322
27.75 0.147819496166069 -0.10939891040881858
28.0 0.018355655167551374 -0.0786542141999432
28.25 -0.10152201520813979 0.02843957236172641
28.5 -0.09273507699832907 0.132819204830276
28.75 -0.009600953264601583 0.12358300989262086
29.0 0.08306168067885512 0.13219711012685487
29.25 0.11833689921318977 0.07293921556342375
29.5 0.13888503963903584 -0.01646364829955297
29.75 0.11484028725279313 -0.17827687252849356
30.0 0.0754647015280081 -0.1793397967087837
30.25 -0.012656251044378217 -0.10009584306411204
30.5 -0.08019197134958127 0.1561065479730256
30.75 -0.021860275815010252 0.2330119856022888
31.0 0.07371722120598179 0.1880432234423638
31.25 0.20421858420906958 -0.015169248718660655
31.5 0.14944608032033896 -0.19772932781429353
31.75 0.06304714476176065 -0.2700272673501002
32.0 -0.01814762397390874 -0.20326361578709445
32.25 -0.06535151717107622 -0.06549842344273384
32.5 0.004737635610119972 0.1296265752651189
32.75 0.08385354244442636 0.1046876503511235
33.0 0.13693139722962766 0.0011477300003454455
33.25 0.13510078445468088 -0.14860472171731795
33.5 0.04399637810698936 -0.15402057742772005
33.75 -0.043600437532506926 -0.03864676144021907
34.0 -0.08669251790709875 0.08210575860263031
34.25 -0.04241380130137196 0.12240193188535399
34.5 0.08675525916513001 0.07020487879457722
34.75 0.19434660343133645 0.006898171488619542
35.0 0.21494820510542795 -0.022974130295026485
35.25 0.16000435755641346 -0.05656195556130351
35.5 0.08952699725769783 0.007202789907473044
35.75 0.0035746056568668402 0.06883754503501062
36.0 -0.04705042943858727 0.09909605683984009
36.25 -0.027470879271218943 0.05660810170016142
36.5 0.06940258008538194 -0.0249724013017016
36.75 0.11328088232762872 -0.09040880907653645
37.0 0.12505994252531163 -0.10281460470341348
37.25 0.06867930279192903 -0.108442284177577
37.5 -0.0026523913924137547 -0.07987330313556643
37.75 -0.046419297493901245 -0.06855540354293123
38.0 -0.06888977630593944 -0.057488147240552345
38.25 0.015439365484537422 0.0010831631554876421
38.5 0.0967911383249439 -0.0028016414606480966
38.75 0.12620872212477968 -0.01929211529740292
39.0 0.11158667119804924 -0.06279444665002457
39.25 0.020587666256868992 -0.08424116842494
39.5 -0.04632252765465116 -0.07414411269934296
39.75 -0.06602328102717753 -0.0005766524081524081
40.0 0.014617072123242245 0.09495328348927229
