!Created with skrf (http://scikit-rf.org).
# GHz S RI R 50.0 
!freq ReS11 ImS11
0.25 1.076392450345633 0.38790104075336534
0.5 0.9546821544027482 0.2330984672893087
0.75 0.9388008852064478 0.37676421225276574
1.0 0.796914266911953 0.4734181600322648
1.25 0.7167852529286469 0.5722246579065656
1.5 0.620937299941421 0.6605437236804328
1.75 0.5249376404834094 0.7400528645832372
2.0 0.42429669460955105 0.8024050998751369
2.25 0.29106500562670695 0.8387326850622658
2.5 0.1771504522949649 0.8738946651851299
2.75 -0.4123659200566955 0.7711387332729063
3.0 -0.7745595980349038 0.3241444004069548
3.25 -0.8049440755892789 -0.2390135226654559
3.5 -0.4702611942785227 -0.7020244373466313
3.75 0.14771949983898783 -0.8217662437154502
4.0 0.6022155483418212 -0.5222449269886706
4.25 0.7832899650214666 -0.05602117136107568
4.5 0.6663095518176415 0.4069386546338563
4.75 0.22980720294442114 0.7547343366999254
5.0 -0.39404857576764085 0.6497798642741115
5.25 -0.7524979562838107 0.20841595313382696
5.5 -0.7015147545364983 -0.2694686827666124
5.75 -0.4236298907045319 -0.6352875870874873
6.0 0.0898367672028673 -0.7485109259831183
6.25 0.5930341654523186 -0.44814086572793277
6.5 0.7114008100948538 0.102635658190018
6.75 0.48476993730316786 0.501855247409394
7.0 0.1897169963170813 0.6369298869189997
7.25 -0.2687914377606134 0.6486510057385882
7.5 -0.6369786521035236 0.2533166178409453
7.75 -0.5713648757802887 -0.28596727506485736
8.0 -0.22198000778737795 -0.5768487229892048
8.25 0.14709822846108175 -0.556655663137287
8.5 0.48430289023950174 -0.3661594265380042
8.75 0.6200017366175274 0.08123252539230413
9.0 0.3504877882696347 0.484835475082467
9.25 -0.040429224416486984 0.5845674629546855
9.5 -0.31562538379230115 0.4590221168223342
9.75 -0.5288842961549164 0.22631446280364978
10.0 -0.5641165155621451 -0.2408288614795551
10.25 -0.20841961313644145 -0.5584988187975632
10.5 0.2539055892479982 -0.5158265395247089
10.75 0.5024613029877804 -0.2943632638633542
11.0 0.6083032295000678 0.013859833271427311
11.25 0.4421017978212402 0.4289578376759155
11.5 -0.0040590923246752834 0.5797718079453331
11.75 -0.36810193714207073 0.3836308329191026
12.0 -0.522438728312843 0.13215781578093475
12.25 -0.5153508099954427 -0.14980962944065296
12.5 -0.3150786283616939 -0.4926040720232559
12.75 0.15030855191872733 -0.5534671821620093
13.0 0.4515172837667837 -0.31341490024301294
13.25 0.5000153484288775 -0.03361968672445225
13.5 0.48382024797977863 0.24492613707167807
13.75 0.19521741891945205 0.5582253847743894
14.0 -0.29113143861819774 0.4775058434041857
14.25 -0.4868330671636554 0.1386263375125217
14.5 -0.45433605299665636 -0.14430533252972058
14.75 -0.3172260551501595 -0.3684032911719643
15.0 0.02465834685738984 -0.4938886747865932
15.25 0.3987674330907886 -0.33134675448781664
15.5 0.48393594479161306 0.019242996600893094
15.75 0.3560247856181265 0.2711396913020497
16.0 0.16745291702566956 0.4233646718731854
16.25 -0.20364767001595943 0.4408721047327694
16.5 -0.4673147346071239 0.14912101445966294
16.75 -0.44201356603960523 -0.18906030977537097
17.0 -0.22160562498783765 -0.38199157414113033
17.25 0.024118372468427886 -0.44992882345438023
17.5 0.36119483973791705 -0.326654030710724
17.75 0.4729292860936294 0.01987256983113251
18.0 0.3500908303333764 0.3157540315272194
18.25 0.0738619064590754 0.3962428363682243
18.5 -0.18041819260498773 0.363267132945633
18.75 -0.41334970616016176 0.1692821550752809
19.0 -0.4090308301652166 -0.14678311116594822
19.25 -0.16056812322918784 -0.35387954723158704
19.5 0.09588097167738113 -0.3646914482980078
19.75 0.2659534351891811 -0.27456612405151903
20.0 0.41312477775388784 -0.03178071865433674
20.25 0.2803858113445311 0.28053468973134726
20.5 0.01167032399214441 0.37297091426152684
20.75 -0.2308636893864879 0.3008306653876313
21.0 -0.3522418722193738 0.14930520021468424
21.25 -0.3860196451152572 -0.07341728094840495
21.5 -0.19412141147766337 -0.3257633318679205
21.75 0.08435457015338875 -0.3273537874090862
22.0 0.26731273964605723 -0.1910292519311372
22.25 0.33738805069200556 -0.034049321322279606
22.5 0.3172836658748613 0.21029484962804798
22.75 0.08134982709455797 0.3409916301025993
23.0 -0.1830322045030987 0.2736377687256186
23.25 -0.3253114810498306 0.08313907109209417
23.5 -0.32105928016374763 -0.06500451435170852
23.75 -0.1891641827553312 -0.27514351807990783
24.0 0.06787393793216243 -0.2959595510013175
24.25 0.2696349823845906 -0.1645648259959576
24.5 0.31707355578767665 0.02432996328251781
24.75 0.25609383220935245 0.13759900042724899
25.0 0.0836351501143945 0.27675628057824675
25.25 -0.17554566307358513 0.24148622365264324
25.5 -0.31234413778358794 0.07450739972275892
25.75 -0.25811344329955416 -0.09755677091748388
26.0 -0.21442078679331217 -0.16283638334338124
26.25 -0.09566529137104265 -0.26703573200448316
26.5 0.15918704956244614 -0.2142368079426003
26.75 0.30046555423161875 -0.05166493113969544
27.0 0.21393838981125154 0.12696094957374648
27.25 0.11472391040868171 0.22435786389955498
27.5 -0.08560290783563533 0.2584677283881995
27.75 -0.2522146713995641 0.11762291705682726
28.0 -0.2765530106423206 -0.09360654440022019
28.25 -0.16788214613998867 -0.18273285885546886
28.5 -0.027572591452419373 -0.23267929505386423
28.75 0.1623700899034187 -0.19965056941988743
29.0 0.2630569036311844 -0.05452233076184724
29.25 0.20833171326932282 0.156885174322943
29.5 0.047769020520110894 0.2328732482601644
29.75 -0.05899717647619354 0.20705779493217188
30.0 -0.19006812530065673 0.13295553749483804
30.25 -0.23435355315714823 -0.018075458018732764
30.5 -0.1433379553183941 -0.1662400774528211
30.75 4.6765628939764374e-05 -0.1789698993460753
31.0 0.1252080157977099 -0.1746228932164009
31.25 0.210150902550567 -0.06697984148427327
31.5 0.1871585346385308 0.10743928003623683
31.75 0.028724777831514656 0.22677344769088292
32.0 -0.09420907911074448 0.16459610688133378
32.25 -0.1570667457023703 0.09867818504527259
32.5 -0.18142885664889502 -0.019996894755499633
32.75 -0.13493834431130378 -0.12481769465983726
33.0 0.004543595205689185 -0.19073507758132027
33.25 0.13126295577854707 -0.1100272849237455
33.5 0.17678620458012123 -0.06186752627650383
33.75 0.1762848893767566 0.06728090970617479
34.0 0.0842295172593666 0.15471090132429707
34.25 -0.04807551696109548 0.1732480208445791
34.5 -0.13324048980793718 0.06792323659190712
34.75 -0.1634900301139195 -0.006968429018280913
35.0 -0.12396651853352673 -0.08917204644340743
35.25 -0.03093142667414698 -0.1657422824875499
35.5 0.08032162691131009 -0.140230045850735
35.75 0.03835077671262904 0.028345465459081037
36.0 0.032720443752375865 0.022898919095833213
36.25 0.0344170323732023 0.009556431145825535
36.5 0.03618087711036066 -0.00431804385196954
36.75 0.03444425521784287 -0.02727988240734404
37.0 0.022903558387485905 -0.04583479891674221
37.25 0.01339781023598808 -0.06954734262064999
37.5 -0.04052734988803999 -0.07740761598218698
37.75 -0.05456354954328219 -0.07471327358669205
38.0 -0.08957029930236243 -0.050599745409122356
38.25 -0.08230569891187985 -0.03342338839314763
38.5 -0.07508124377768492 -0.020034910385664274
38.75 -0.043962053412152854 -0.03978372067535992
39.0 -0.01256276392088889 -0.050363520152408026
39.25 0.025481317159302165 -0.03978084070922338
39.5 0.04310234085949592 -0.022767421158629564
39.75 0.05293597051632604 0.002237372890865232
40.0 0.04976540543076048 0.012952253811787115
