!Created with skrf (http://scikit-rf.org).
# GHz S RI R 50.0 
!freq ReS11 ImS11
0.25 0.3187299489841738 -0.5349354015860853
0.5 -0.031114092706795354 0.1587759578347589
0.75 -0.04675506638103297 -0.1508671626595446
1.0 0.10861739622946702 -0.07403931789828382
1.25 -0.052870527412762075 -0.028171124894837807
1.5 -0.04252748129902566 0.02791449718294614
1.75 -0.05409966231350187 0.0725913218288094
2.0 0.06634884170569291 0.10763601578756454
2.25 0.009394187169828504 0.03234478549367324
2.5 0.09403131396973802 -0.0038531754291925204
2.75 -0.0020077823740609485 -0.08015402937714905
3.0 0.062046789589532185 0.1049555250220901
3.25 0.06783547029686252 -0.024970510773275403
3.5 -0.024537741862374424 -0.042996302547094314
3.75 0.007935852919192556 0.006011247487233931
4.0 -0.01432388670808417 -0.1577331195051458
4.25 -0.05672916001521695 0.02712286480733147
4.5 0.011918316800639636 0.014062439921624384
4.75 -0.06168604427742906 0.09132837350425058
5.0 0.032262668822348725 0.0768080313889744
5.25 -0.07879776165068936 0.014243298897342688
5.5 0.02511665759046947 -0.056406903779721504
5.75 -0.08841813748300048 -0.02730371952314492
6.0 0.0406155198455575 0.08024384953011665
6.25 -0.014971680236599241 0.09523421667127902
6.5 0.06371198138697606 0.07240793162141254
6.75 -0.03404716490753861 0.03275333741361746
7.0 0.08118375539710657 -0.058169998855797225
7.25 -0.03902111758345267 -0.05343799983292036
7.5 0.09267792553425268 -0.05150163856015069
7.75 0.01154925270310369 -0.04902401003309697
8.0 0.06576546468946311 -0.02657923821098073
8.25 -0.032603730814426704 -0.05102293109378553
8.5 0.046145559809941804 -0.03623701068944993
8.75 0.001843612865814373 -0.08883147518340197
9.0 0.027737698523561102 0.010664092501405308
9.25 0.07346222468230408 0.002810819997206647
9.5 0.00854369565406625 0.015963117300206615
9.75 -0.032288192463621475 0.07211548378849611
10.0 0.003977419207733195 0.0642960442642781
10.25 0.013206981670924788 0.04393742850721197
10.5 0.0737624361400482 0.1001303974957371
10.75 0.14688163656476688 -0.07896490890095026
11.0 0.028296926020865996 -0.011551507047660387
11.25 0.04818576349062769 -0.07785213444483513
11.5 -0.0946745232236268 -0.03481445901149774
11.75 -0.04947430320262611 0.057739043338937576
12.0 -0.07645072169235512 0.02859983289414783
12.25 -0.023833045991847518 0.08740856888169381
12.5 -0.006677013620304536 -0.050826763018327746
12.75 -0.08857248991452235 -0.020346796213895187
13.0 0.014740664958298337 -0.11832206378643498
13.25 -0.11114622812283126 -0.058048009378341356
13.5 0.021543165437700688 -0.017312894531247985
13.75 -0.07272656954199684 0.02580608631137253
14.0 0.0029150199314841273 0.11301420616181626
14.25 0.040144250569675355 0.05737938606181489
14.5 0.09981861640627812 0.05052945740095411
14.75 0.1448035427556762 -0.09445056394493848
15.0 0.03456689778620207 -0.05313754797079391
15.25 0.055051287832084767 -0.09513995669781038
15.5 -0.10827392580239034 -0.020758293843936557
15.75 -0.004146807408216577 0.09838264886383002
16.0 0.021492568911398453 0.08852379960921405
16.25 0.15103112865733623 0.09814357931693195
16.5 0.14131693312812652 0.04381684627992152
16.75 0.11034929279910226 0.016512873303892533
17.0 -0.002207031762595398 -0.004039234591961056
17.25 -0.07402138318026495 -0.018145984867645154
17.5 -0.09009493043015489 -0.007764012976550713
17.75 -0.012968412790677848 -0.04969160177243092
18.0 0.014717891388358956 -0.004070348918285872
18.25 0.1355274331294767 0.023523461368741543
18.5 0.10412929612761627 0.011791819916061
18.75 0.14044828033927612 0.03806708005098443
19.0 0.018897200864416628 -0.10560405762790107
19.25 -0.03601855400189993 -0.10917209278228093
19.5 -0.10636014854403528 -0.08916019078198742
19.75 -0.10385289918275613 -0.011027252962094853
20.0 -0.04949778513167402 0.13115877858478472
20.25 0.09365524386498891 0.11328969857718724
20.5 0.08455366269225244 0.09012005721952729
20.75 0.23370415791248283 -0.058229725332568184
21.0 0.08783435021235177 -0.1787561376044029
21.25 0.09827742344878063 -0.05865086755162134
21.5 -0.05317642629295048 -0.030822869353750927
21.75 -0.04042121977960057 0.2170795271411362
22.0 -0.01391601963364318 0.14088238384775462
22.25 0.03679911774313278 0.1471917725196276
22.5 0.09816831566401753 -0.08088453066459188
22.75 0.05547531409043372 -0.09758572966111825
23.0 0.04035116563689434 -0.16554620933407593
23.25 -0.04738335992413511 -0.01555300664944835
23.5 -0.0015598597227900295 -0.007371377589734038
23.75 -0.017053010378648065 0.05550631625462637
24.0 0.031784504613856596 -0.0030188859569072607
24.25 0.0549614470637982 0.006284877227781146
24.5 0.0582664557120022 0.040820637409785435
24.75 0.06656812254155112 0.021864723667814903
25.0 0.022167978821222255 0.053402552473980985
25.25 0.07658233879232097 -0.040155775465871325
25.5 0.031981551668670824 -0.13612186311366234
25.75 0.04131260120957447 -0.1044083458390061
26.0 0.018133797422744638 -0.088014334846342
26.25 -0.009852408703943516 0.11001246303554013
26.5 0.0859030835050103 0.17372440332000547
26.75 0.0693296943732979 0.14862799336311713
27.0 0.1488581336158866 0.08261663011601894
27.25 0.1577513946212194 -0.04251675663942484
27.5 0.09355261068099915 -0.175814549358032
27.75 -0.08033557392965719 -0.06833794239644891
28.0 -0.07870215572178195 -0.031442618270422495
28.25 -0.1539832797951384 0.10657977061085504
28.5 0.0724829011067572 0.11887149812319754
28.75 0.14653100724602303 0.016832414184546465
29.0 0.22772480638605358 -0.04505468152628133
29.25 0.14818072906198884 -0.1183773971152102
29.5 -0.03764726504929675 -0.09000814930741786
29.75 -0.15783403260161685 0.00015788994532251084
30.0 -0.12892355086775326 0.06879941607469484
30.25 0.010044800731160994 0.06804790344901505
30.5 0.18421159146334165 0.058212468630445456
30.75 0.29829714904750676 -0.07246682245861338
31.0 0.18227335623367016 -0.08489617937407629
31.25 0.1174165378127084 -0.11071411160817715
31.5 -0.10787438976668512 -0.05028916588549686
31.75 -0.024302986795870684 0.05241130072483243
32.0 0.04308690256215526 0.031825741625147945
32.25 0.0995732767491948 0.049697030915312745
32.5 0.10319590536804288 0.02930636263475004
32.75 0.06015884056451898 0.011623193588550722
33.0 -0.00023078682580719018 -0.04299702241392402
33.25 0.019787226387308857 -0.028706808636973724
33.5 0.038885441984031086 -0.09498328769735731
33.75 0.037963657984817836 -0.014573230078500927
34.0 0.0726972218474728 -0.008838136931517547
34.25 0.0117000265798015 0.03736646518922452
34.5 -0.020936956469241298 0.03909903640025299
34.75 -0.002185704559562171 -0.04488766038910241
35.0 -0.01704866013545683 -0.046353540139235774
35.25 0.03221740679675932 -0.05294735803007446
35.5 0.07440545183090141 0.002759998994784612
35.75 0.07040850841869113 0.06362997667369243
36.0 0.1520589109946216 0.09278194345037137
36.25 0.11682976767459163 0.022863549514750593
36.5 0.123696666020799 -0.03744776102766311
36.75 0.07235770273588718 -0.08733395475210538
37.0 0.04122860641558948 -0.05334439769465585
37.25 0.005245521913301958 0.049043546434858726
37.5 0.06355760154393067 0.07648490685362823
37.75 0.0640155591874875 0.08393162674740808
38.0 0.11404150203433101 -0.005808929871574927
38.25 0.06085215667070115 -0.060813502282083334
38.5 0.041638235591284115 -0.08430482475788026
38.75 -0.02004442135965153 -0.04786819946663713
39.0 -0.02914266147340949 -0.002342777579818661
39.25 0.028260231406944187 0.08626193225317572
39.5 0.17782609291518037 -0.0009196795124412037
39.75 0.15177922887060696 -0.07691262706211567
40.0 0.1238257223092108 -0.08703041111032418
