!Created with skrf (http://scikit-rf.org).
# GHz S RI R 50.0 
!freq ReS11 ImS11
0.25 0.2871282920997055 -1.0102077086282444
0.5 -0.9294785597732861 -0.23034371642994164
0.75 -0.42987760699772953 0.9042981984602697
1.0 0.76782332643391 0.507296650697683
1.25 0.6262182557187885 -0.6745827432872135
1.5 -0.5009845652637903 -0.7477421768861809
1.75 -0.8175567155412591 0.38035990594461827
2.0 0.22006753889011804 0.8715401575587333
2.25 0.8776343081448446 -0.06446272316647157
2.5 0.1315886060570853 -0.876229105693835
2.75 -0.5319492351420344 -0.6721514772176584
3.0 -0.8025521612678133 -0.21551031067795073
3.25 -0.7713580928072208 0.30718105567361115
3.5 -0.3256308972694179 0.7427724313811052
3.75 0.16133085333868413 0.776960815494858
4.0 0.6633191062834705 0.40784045716840617
4.25 0.7506696917490787 -0.1412363184979046
4.5 0.4754366086004142 -0.5836105186012864
4.75 -0.025913881539944308 -0.7641674926820462
5.0 -0.30828585831105215 -0.6625949933893156
5.25 -0.6296270723012479 -0.3731129201856368
5.5 -0.6601167944884517 0.257747121205194
5.75 -0.30490824791379434 0.6581314562164812
6.0 0.07303206595572732 0.6892092124592858
6.25 0.4785684993686151 0.4976134879879096
6.5 0.6448145031479431 0.14528821404868222
6.75 0.5747182233584741 -0.3447880571246506
7.0 0.0915488792731734 -0.610529395562909
7.25 -0.2708273902728186 -0.5977086643988742
7.5 -0.5191886707824037 -0.42193250079168537
7.75 -0.6437907824951347 -0.07816248368548194
8.0 -0.5051713946112346 0.38782082746763363
8.25 0.030389476460667135 0.587055858586904
8.5 0.4779968598338473 0.4257964779857826
8.75 0.6197866339917599 0.1537955468741812
9.0 0.5641354571348153 -0.21864132362025704
9.25 0.2895187402320811 -0.5313538754215191
9.5 -0.12755867986382047 -0.5700800431548004
9.75 -0.5005258176940149 -0.3267265166237961
10.0 -0.6207445305066328 -0.07004169234136136
10.25 -0.41143416885285694 0.4221342322771413
10.5 -0.07362356757609173 0.5886937146416796
10.75 0.34531238925709806 0.4594268788095539
11.0 0.5794074686166876 0.014531909875485659
11.25 0.5142411186804895 -0.21677393553543067
11.5 0.4161511961854277 -0.42306845260355735
11.75 0.00023963299880512545 -0.5130325486347018
12.0 -0.4029434569480478 -0.35588777143474143
12.25 -0.5103122131556913 0.03961349677426888
12.5 -0.45076640244682564 0.30749399982301195
12.75 -0.19736768924725134 0.5147820110434453
13.0 0.30635227253417685 0.4461442550096092
13.25 0.48722302460777306 0.027636353210611902
13.5 0.3982140105687747 -0.3109870543412486
13.75 0.26340628428250695 -0.43935920726339056
14.0 -0.08586143636589802 -0.5054570395467434
14.25 -0.32633713230183137 -0.36992860818809536
14.5 -0.46098859233665834 -0.05723908724388161
14.75 -0.3708630741429721 0.3246544351710363
15.0 -0.14357162966030002 0.48843334234164765
15.25 0.20750740889499267 0.46199368314565675
15.5 0.4259824832491737 0.23322141117477713
15.75 0.42672350474793064 -0.14368832073539545
16.0 0.18629656650474594 -0.4228218395408176
16.25 -0.05834860391141682 -0.4760781104214348
16.5 -0.32066550226896234 -0.3574092798494264
16.75 -0.46938385956262363 -0.0667898754552093
17.0 -0.3611073044384181 0.2391304109994555
17.25 -0.1338654827405229 0.4097823407929368
17.5 0.10401750999366141 0.4591659000700666
17.75 0.411222565032333 0.21335275830548076
18.0 0.4435618718584664 -0.10024689744566184
18.25 0.29568159882088135 -0.2819534268190141
18.5 0.016261678011462794 -0.4087449344542368
18.75 -0.24204467982111785 -0.3702795950061507
19.0 -0.4106643243547454 -0.09030076188764387
19.25 -0.3584148673144216 0.15062332884665267
19.5 -0.2017876365419681 0.32580735415499135
19.75 0.08005977802802436 0.3867872241678445
20.0 0.349514750433437 0.22295819526457591
20.25 0.3818327153993518 -0.050750132963947
20.5 0.2699118750187709 -0.22758100906832324
20.75 0.06276767186666597 -0.39727755030698736
21.0 -0.19753822964513243 -0.3239779091507511
21.25 -0.3563316229980444 -0.11476123017373994
21.5 -0.3164162513748705 0.1317172690955044
21.75 -0.2048992690417975 0.2619593989665294
22.0 -0.06850124644035653 0.3218629517279555
22.25 0.20086787928022115 0.2954976253025332
22.5 0.38210334310025096 0.018691013731520347
22.75 0.2154911401733009 -0.24037041792740538
23.0 0.045039988373519343 -0.30503424730301154
23.25 -0.08850922321983928 -0.3264166785786845
23.5 -0.24036507299058216 -0.20884132293233565
23.75 -0.3207416990000002 0.0067248784506483954
24.0 -0.19094684652234242 0.2339881243986609
24.25 -0.018759422136620886 0.30207632585003674
24.5 0.131062362330617 0.27599363145388894
24.75 0.2575017210811678 0.09936123173569425
25.0 0.27051990760632183 -0.13231352081404404
25.25 0.05512194188614149 -0.29445502139581103
25.5 -0.14338170998266528 -0.2996319382506056
25.75 -0.16848003074659132 -0.2096119212858107
26.0 -0.2545614019534379 0.042903669396782466
26.25 -0.07466671733306011 0.27604662064579755
26.5 0.14108334825324312 0.22455134930827442
26.75 0.2634856549002935 0.11318492862797958
27.0 0.25461498184994746 0.06032338980018337
27.25 0.2010906894161391 -0.09107671198972592
27.5 0.06098461524713951 -0.26297386272371803
27.75 -0.15870283038352498 -0.21685740907311335
28.0 -0.27948577039000405 -0.06147974229436918
28.25 -0.2777260829308976 -0.013465077642417077
28.5 -0.191564468884032 0.12498898057669743
28.75 -0.0054447802858416106 0.2643381156507129
29.0 0.25509111598851053 0.13836136906575244
29.25 0.2509378721327678 -0.09006876602243225
29.5 0.2087731183838055 -0.0795522146276194
29.75 0.1473038925218105 -0.15458654741023087
30.0 -0.08768937565717241 -0.21248484211429702
30.25 -0.2468975987445224 -0.04261005310929327
30.5 -0.190502785865085 0.06853377908556618
30.75 -0.17992764250825036 0.05246190090128092
31.0 -0.12335874358604554 0.18381961903288252
31.25 0.15771570648492245 0.16328674552857622
31.5 0.17628477689287625 -0.036785465245938356
31.75 0.18614767286515205 -0.10857337426504285
32.0 0.18177565679046445 -0.08328044359554194
32.25 0.05522440670536215 -0.18653584709275708
32.5 -0.14357295441296278 -0.118154168802497
32.75 -0.17043981661441665 0.06397539933412949
33.0 -0.12497493440496577 0.150923245437341
33.25 -0.13042204665796542 0.1067190683058414
33.5 0.0016017950023197933 0.1907834981057865
33.75 0.16108891913744244 0.06504680721357001
34.0 0.11734515651637908 -0.12478847875107713
34.25 0.06993827709497039 -0.16477631885858035
34.5 0.10351474558292861 -0.12826794280643714
34.75 -0.05945384029744817 -0.14232667393908263
35.0 -0.15326853499982784 0.03786320541289453
35.25 -0.04703613390550046 0.1475891701812807
35.5 0.017928432978728724 0.16317940500174394
35.75 -0.01852159634421423 -0.029102838778237532
36.0 -0.023050768886614698 -0.02593749502164367
36.25 -0.030454844386123784 -0.02092695068971117
36.5 -0.035998259274879874 -0.007514322551572658
36.75 -0.035794020736052375 0.006960345616452621
37.0 -0.027742194126875216 0.022416521472497994
37.25 -0.022854070193756924 0.03165864590290535
37.5 -0.013370856561924473 0.037096489882141606
37.75 -0.014295819197345641 0.03765554507609465
38.0 -0.001149457970246577 0.05284648572910812
38.25 0.010386150320594239 0.05199108045736035
38.5 0.009726643751591896 0.04786681124776119
38.75 -0.0013315859545226679 0.042404208472485314
39.0 -0.02298835603700985 0.039357009380088
39.25 -0.04798025277176569 0.027809650870856965
39.5 -0.05674926197170918 0.004345265316832338
39.75 -0.04968916176471272 -0.014199957551036408
40.0 -0.039086732376325456 -0.022129058762738463
