!Created with skrf (http://scikit-rf.org).
# GHz S RI R 50.0 
!freq ReS11 ImS11
0.25 0.47318077807754216 -0.935172226074969
0.5 -0.7774579138959563 -0.56840840710448
0.75 -0.8480542952645134 0.5475355599995168
1.0 0.21589802123452545 0.9054275492596552
1.25 0.9163451775485639 0.11344627245205306
1.5 0.47399330473686907 -0.7684508140440645
1.75 -0.5709856983811152 -0.699895261778846
2.0 -0.8533633707292975 0.29275091901406386
2.25 -0.04134744442553396 0.8813832540324568
2.5 0.7991113668429727 0.38452654162687955
2.75 0.725530043635048 0.48218272390462436
3.0 0.5220149482870077 0.6546041959516375
3.25 0.277390039823091 0.7978578431264497
3.5 0.18856091292825236 0.7968795776082099
3.75 -0.06700098573477865 0.81836462208831
4.0 -0.1296574473233036 0.7851779158540609
4.25 -0.24196142387667624 0.7453505445891818
4.5 -0.3617038266375154 0.6877407219234221
4.75 -0.5615198382931282 0.5598437980999708
5.0 -0.7105404416296289 0.25096402794158246
5.25 -0.7627302872818768 -0.08806961250770871
5.5 -0.727416175761178 -0.11739945396101198
5.75 -0.6806948003998773 -0.2435282830470016
6.0 -0.563180905607697 -0.4438022163370638
6.25 -0.47123918791914593 -0.5671990499401199
6.5 -0.33014971845111163 -0.6236135154975928
6.75 -0.2689105521209244 -0.6456658196941927
7.0 -0.271311502485237 -0.6204164442446515
7.25 -0.13924340656875156 -0.6970959937490058
7.5 0.2510518486097773 -0.6785256053327985
7.75 0.5454151323655964 -0.44332791460608484
8.0 0.6430745322204169 -0.26908259205981855
8.25 0.6535702867292238 -0.1627744791188241
8.5 0.6905317518702451 -0.032140773712943625
8.75 0.6534082055265036 0.20801761814484415
9.0 0.5986290345609724 0.28128922064950806
9.25 0.5395617582130394 0.3754128191955909
9.5 0.43031344261615284 0.4709213381348958
9.75 0.293210920273935 0.577262330880537
10.0 -0.024067726027948787 0.6366205629840062
10.25 -0.15058511973823765 0.5862835185706441
10.5 -0.25480054308442873 0.5278511149578257
10.75 -0.4124604545154255 0.4787434468017444
11.0 -0.4163636306360586 0.4171148133291733
11.25 -0.5159458858283996 0.2971341770755096
11.5 -0.5756050166306523 0.13250325547686725
11.75 -0.5586795512849518 0.061162115428827414
12.0 -0.5755725798964949 -0.0063249289590652505
12.25 -0.5528406469889143 -0.11309217292309233
12.5 -0.4231302300237005 -0.36199810870884186
12.75 -0.2259019263240072 -0.5018768381209566
13.0 -0.19462937144903383 -0.48790956587834544
13.25 -0.15089744174524813 -0.4757959911682202
13.5 -0.018531864328184478 -0.482849211160276
13.75 0.16486760165226544 -0.5181635509708894
14.0 0.17304991167654393 -0.5023450342150579
14.25 0.2675517170583726 -0.4480888883204761
14.5 0.30843384179729916 -0.39172840298905454
14.75 0.3575301628859309 -0.33860492499765443
15.0 0.43640869595758475 -0.19983815076202763
15.25 0.5221555393789719 -0.04124101252360895
15.5 0.4859012609799743 0.13282900190263214
15.75 0.4196082011752137 0.2638285953617137
16.0 0.38244983656924675 0.2733746621323905
16.25 0.27038561077706236 0.379515084598036
16.5 0.13893021673507167 0.4627631314939024
16.75 0.12195791480950388 0.46591127830727075
17.0 -0.049900888938629 0.4574490252028911
17.25 -0.17559882641082866 0.4292103183322118
17.5 -0.34642039604094477 0.3430042082637691
17.75 -0.3336853950780796 0.31106168542309964
18.0 -0.3920430460336387 0.26699126080800306
18.25 -0.41788288449669164 0.09871720026615524
18.5 -0.4122917156864193 -0.035633935134634406
18.75 -0.4194350144074835 -0.11518454538511726
19.0 -0.3949141106920708 -0.2276885608939629
19.25 -0.29373116956824064 -0.2875059237239041
19.5 -0.23618840188346624 -0.3362206199452178
19.75 -0.14234882217042388 -0.376500037005414
20.0 -0.0447240207477127 -0.4367630685401655
20.25 0.0886399907729287 -0.41722474524713843
20.5 0.18871379661449805 -0.3318800401490062
20.75 0.29560387983073494 -0.2578228190560675
21.0 0.33562424706748123 -0.19597976208418016
21.25 0.3784077152478813 -0.14199669688958835
21.5 0.36688896744853 -0.17672472970018313
21.75 0.35887794017318947 -0.09108054663043688
22.0 0.3070842049345631 0.13126633498097104
22.25 0.27742550204528404 0.231987971395178
22.5 0.28550996470633727 0.2629167868888808
22.75 0.25189805933829174 0.2406426076010535
23.0 0.14091603122383833 0.31683971529617405
23.25 -0.1067562751927543 0.346630323956175
23.5 -0.18734812258774708 0.3068389835374341
23.75 -0.14727246040780273 0.34513657904385703
24.0 -0.11997387116706922 0.32693748086024854
24.25 -0.21750612177879117 0.2594714876420801
24.5 -0.32927282132731917 0.09988578498102832
24.75 -0.3178603810307736 0.01500707376694516
25.0 -0.30123782069311017 -0.012124898902288026
25.25 -0.3106943306814806 -0.040755279131931194
25.5 -0.25612771527652983 -0.1920954487528507
25.75 -0.06378530771535768 -0.29537051675554743
26.0 -0.1070531194106883 -0.2862229913860287
26.25 -0.18714389053805822 -0.2126923903975535
26.5 -0.1623348380858714 -0.19504254496069806
26.75 -0.10404527969890631 -0.2711483609275476
27.0 0.09933849425214214 -0.23727358727988007
27.25 0.1851759537978952 -0.20422282155187552
27.5 0.18039513723753203 -0.2175336070122876
27.75 0.1669724341271614 -0.2337311346255816
28.0 0.22074227349006664 -0.1866392688998739
28.25 0.26224526111872487 0.025268705270067582
28.5 0.23395053170490318 0.09693631706075194
28.75 0.2460585565636696 0.06020189389055004
29.0 0.2695858939559015 0.02805802192733254
29.25 0.2583709064213277 0.07897882495160338
29.5 0.09053460410180109 0.258631387121521
29.75 -0.047705708198064314 0.22952526639260484
30.0 -0.016896428047263143 0.21813762324494387
30.25 0.02196907681891984 0.23140892481804456
30.5 -0.03670972960256887 0.2116713477648726
30.75 -0.14864838361984054 0.07338222855968103
31.0 -0.20908927880379252 0.03756042401444787
31.25 -0.20209503089091935 0.10397810916589799
31.5 -0.14946427434282744 0.16393889590631242
31.75 -0.2179092838477599 0.027500775986448803
32.0 -0.09138189944692993 -0.19557644233354196
32.25 -0.0786285272976659 -0.17388521001653112
32.5 -0.12204188168893128 -0.15460065489154076
32.75 -0.14678483856151642 -0.13540642345769704
33.0 -0.06865645945696061 -0.17634039011515093
33.25 0.1274037932065494 -0.14767219476566307
33.5 0.1629507290149895 -0.14073757049702484
33.75 0.08320853524062863 -0.17912484427919198
34.0 0.03512979611004574 -0.17432224670978336
34.25 0.1380417298317632 -0.11839317842447566
34.5 0.15285357751426812 0.07053202145268278
34.75 0.1794001421322203 0.06101985242660787
35.0 0.16859633023836443 -0.03708484225883027
35.25 0.16896311616679166 -0.07201773031537073
35.5 0.1461333024613074 0.060383284633462514
35.75 -0.04059581118088586 0.009037219037545055
36.0 -0.03497378911675444 0.01922354571308838
36.25 -0.02512765910475286 0.027542406881600773
36.5 -0.010892171942863432 0.037652828941155334
36.75 0.01448627392828386 0.043179255800254134
37.0 0.034649614823855215 0.037363926109037666
37.25 0.04920116119076162 0.03625565678182466
37.5 0.0709255244675599 0.023736405432794202
37.75 0.06767019268304393 -0.011954722591428843
38.0 0.056866913888310985 -0.030462168243201755
38.25 0.05235610377627701 -0.0336508102690525
38.5 0.05224861514612137 -0.025008541990601235
38.75 0.050176782096031484 -0.008323347872050968
39.0 0.042581454082071986 0.016483966613034265
39.25 0.02237593471815822 0.029278399500062485
39.5 0.005162933182740769 0.03568646873856033
39.75 -0.015940371145465974 0.04109465477389938
40.0 -0.031825298298508324 0.03443349540882494
