!Created with skrf (http://scikit-rf.org).
# GHz S RI R 50.0 
!freq ReS11 ImS11
0.25 0.2592202548104527 -0.36018396846879874
0.5 0.10266902916687587 0.156099960077529
0.75 0.12907546538954295 -0.30147244171362225
1.0 -0.026267683077031295 -0.04401659513817202
1.25 0.025647673210318883 0.05757266841432246
1.5 -0.04421393735134041 -0.004356171310066312
1.75 -0.062620189297326 0.07376717686887546
2.0 0.020002715929302542 0.10221569602647775
2.25 0.04538901662103539 0.021329370530629162
2.5 0.012631259039353769 -0.013652628672464567
2.75 0.0107957035422611 0.06607212963527484
3.0 0.10233541565172506 0.11387863861455914
3.25 0.02221090384454115 -0.02871110104121552
3.5 0.03667455628641642 -0.005279634294027637
3.75 -0.007972270156078078 -0.09871986035422353
4.0 0.014013073526193473 0.038182999481415895
4.25 -0.07299533603268828 -0.0339879873024195
4.5 0.06929919577138115 0.07773037281430092
4.75 -0.027751811350760602 -0.019798197578760345
5.0 0.03929627230921865 0.16300876630354227
5.25 -0.08373268389000593 -0.03984543672555045
5.5 0.04958381965208156 -0.030056386698732063
5.75 -0.1337892076810957 -0.09860038952442847
6.0 0.06418089762890979 0.14190011434943836
6.25 -0.06078311747228185 0.038871755916667736
6.5 0.062449816544746656 0.11612118917483193
6.75 -0.06935271393498305 -0.01938553061839164
7.0 0.14984400212977475 -0.0016671061101427888
7.25 -0.04115988574600356 -0.14349221572143483
7.5 0.07486936822189842 -0.04064015145862513
7.75 -0.052851615953709276 -0.10926795549694085
8.0 0.09821168598933668 0.012477611255715462
8.25 -0.02684563824645804 -0.0839627038140613
8.5 0.038585343840838615 0.0174508585932203
8.75 0.04423120377730802 -0.11279357810551026
9.0 0.09125675136971045 0.02475460522315634
9.25 0.07795166636099601 0.0046759641304065245
9.5 0.04663917640955198 0.056669773481236876
9.75 -0.0558708397496218 -0.017091043227428986
10.0 0.020907348370614254 0.10035677253088504
10.25 0.04958797525580173 0.10305643834261338
10.5 0.14127025268488924 0.053062754219566
10.75 -0.03418157030061526 -0.04049311601278503
11.0 0.0824163454961523 -0.01603060231151514
11.25 -0.0023962383954430275 -0.09803437450688135
11.5 0.023227197543529195 -0.004499615678396557
11.75 -0.12011536111390515 -0.007568080722257772
12.0 -0.0741986423945798 0.0819395808857397
12.25 -0.08975308361591088 0.050967606009297756
12.5 0.013445453093238625 0.031079104033074713
12.75 -0.04751830244501892 -0.07574455611718987
13.0 -0.029764145012924494 -0.11975856996657204
13.25 -0.11662168768777335 -0.11956410112345583
13.5 0.003996146918581807 0.0884239132099502
13.75 -0.02619360440338971 0.018962887066170414
14.0 -0.017132163555615976 0.13200317390048882
14.25 -0.0011586198763747103 -0.0009683137525670896
14.5 0.13893215609507958 0.00758800020985919
14.75 0.10781509973460598 -0.10460296569453538
15.0 0.06734916135656951 -0.0150634219598762
15.25 0.036095963559425896 -0.09477672756104609
15.5 -0.03945036597470995 -0.02402142195464605
15.75 -0.0044355082498533545 0.0575309728815225
16.0 0.031744384749013414 0.13359437188812423
16.25 0.14184248710770955 0.09884752397551869
16.5 0.15331733283423624 0.023429709896941348
16.75 0.11344200827173301 0.015713208119706834
17.0 0.024687937291045785 -0.00862739458818371
17.25 -0.08230279091211 -0.017721237589162733
17.5 -0.07838065085020646 -0.008395377687220186
17.75 -0.017185067163583735 -0.05579976379863398
18.0 0.005079044708666542 -0.0205968431865704
18.25 0.09281181231989387 0.024375664371269673
18.5 0.15943995611903533 0.057308068946522
18.75 0.1682425833150189 0.011315958251561231
19.0 0.04134257289290756 -0.09715076423830282
19.25 -0.12212257149569514 -0.10146031292248839
19.5 -0.15364295316630194 -0.055342975444430356
19.75 -0.09732671535838393 0.012814565116666884
20.0 0.041777930099474545 0.10255104478475942
20.25 0.07575401544325237 0.05940018640107256
20.5 0.08341946940239904 0.09441696731701775
20.75 0.1355573975412544 -0.02996745113078407
21.0 0.13443537380400128 -0.08648947588550729
21.25 0.1011393770188566 -0.13612944016264875
21.5 -0.008357808562858072 -0.0004606786284861012
21.75 -0.068621747038041 0.1271710041172651
22.0 -0.019111672564982016 0.2225349176741126
22.25 0.043302586407042036 0.10228717355036575
22.5 0.06433304593576138 0.010815398582219662
22.75 0.078190928183511 -0.16006984956789808
23.0 0.020522900734112927 -0.16548502902646195
23.25 -0.035735835307844535 -0.10358810402196493
23.5 -0.02041293557321088 0.06925707159764313
23.75 -0.019905455315138862 0.04872668668128183
24.0 0.01833577133488291 0.06799167985655197
24.25 0.07265695683171339 -0.010226519798693393
24.5 0.06999776780116516 0.013272489544002682
24.75 0.028928936148987394 0.003477274694289264
25.0 0.030688066448790987 0.05750104881507972
25.25 0.06516275790895847 -0.028194750530031624
25.5 0.07149050975005869 -0.08889307449074643
25.75 0.05238784827260348 -0.14399145863205556
26.0 0.0005967707786830104 -0.07583051685781098
26.25 -0.023456281048574078 0.05018331394748064
26.5 0.03652285219502242 0.19947887298998604
26.75 0.10666954425914361 0.174635262809239
27.0 0.16260425907945153 0.10963299404443477
27.25 0.1881127518344445 -0.07560462691900703
27.5 0.06661636435447676 -0.16587711374072442
27.75 -0.07056029658197521 -0.12074967369529273
28.0 -0.13650846386776788 -0.0015383656046733599
28.25 -0.11473116668122854 0.11468305852332009
28.5 0.06205414356340749 0.12493670962734074
28.75 0.19755949833061065 0.02557965558294345
29.0 0.22939178615195518 -0.09866556706577355
29.25 0.08612834812149261 -0.08764424490471698
29.5 -0.03164604730500016 -0.07026337278471295
29.75 -0.15946599224667696 0.011535921258980994
30.0 -0.08848910840575469 0.058728573670522324
30.25 0.00491304061349911 0.03578467532611238
30.5 0.1815742850070999 0.030452758258352086
30.75 0.2455333304667454 -0.03258776673611945
31.0 0.21680189615187118 -0.059889151232790636
31.25 0.08714100348323416 -0.10558623425376461
31.5 -0.06569243065970148 -0.07229646552143099
31.75 -0.04546508106504053 0.0035130997289775237
32.0 0.04639767205996604 0.03944525965304356
32.25 0.07524214765134868 0.06481612622285153
32.5 0.12042912568570659 0.07408015998879255
32.75 0.05216464027143802 0.002747994396073695
33.0 0.023014354743636792 -0.03847356502967579
33.25 0.008205687547031312 -0.10258092913960443
33.5 0.005341854402409675 -0.06589619455899412
33.75 0.0563040457804323 -0.013754471051697463
34.0 0.06657134099403428 0.03323980372339054
34.25 0.053839987917389094 0.04159932996421856
34.5 -0.0205872371864537 -0.0028178885720183764
34.75 -0.04814194956195068 -0.05334485767602475
35.0 -0.020120734161335474 -0.05486483091878098
35.25 0.025111856115785477 -0.03576793711429683
35.5 0.10879775572199496 0.02104251856636437
35.75 0.08004078720480605 0.05455694105067882
36.0 0.14424896084425845 0.10297165364591718
36.25 0.12228617041313809 0.014989424438255867
36.5 0.11976006351380605 -0.0327840637390945
36.75 0.07685844432787653 -0.0912972239639977
37.0 0.042930384548638977 -0.052612476966559366
37.25 0.0026855904264940153 0.044851649036952976
37.5 0.06116123926656529 0.0811588186735527
37.75 0.07106470250514066 0.07786750493351924
38.0 0.10223590501844923 -0.00565185124182542
38.25 0.07130603818813956 -0.05241332901519791
38.5 0.042210270789788104 -0.10280865580993986
38.75 -0.03788587789864012 -0.0376441093778121
39.0 -0.009390360106327638 0.00826205045911801
39.25 0.029648517799749877 0.0615168047559048
39.5 0.15361529733653012 0.0031038239167901216
39.75 0.16135430812361312 -0.056532896406697564
40.0 0.13969572548667514 -0.10249804399491699
