!Created with skrf (http://scikit-rf.org).
# GHz S RI R 50.0 
!freq ReS11 ImS11
0.25 -0.952636160284546 -0.5235519520753655
0.5 0.7597263303846289 0.5701656978607308
0.75 -0.5118545394123957 -0.845074827217812
1.0 0.17488954199550852 0.9022544381627974
1.25 0.19775801767359258 -0.8982793539087386
1.5 -0.595655701710909 0.6797193338682312
1.75 0.784848993146432 -0.4384461365408271
2.0 -0.8809936139328635 0.08734513069738052
2.25 0.833537944892818 0.26645150670241174
2.5 -0.6168533991221912 -0.6265216669984596
2.75 -0.7215147350932363 0.4626821385749693
3.0 0.015639123403689933 0.8353995932988901
3.25 0.685520477643417 0.44663938775079426
3.5 0.5499480742452192 -0.5683495642561266
3.75 -0.23362342568514152 -0.7511461553851757
4.0 -0.7578690593763305 0.11011529690848094
4.25 -0.15053120902680803 0.7490422188843949
4.5 0.6147417153321275 0.4261404342263837
4.75 0.6636049863953883 -0.3814313081193743
5.0 0.1760127517257282 -0.702227835769746
5.25 -0.43435402647911586 -0.5708619322934948
5.5 -0.5827284741020704 0.3737302304695591
5.75 0.13837802665850743 0.6723726611913231
6.0 0.6032845895658032 0.27913234343451965
6.25 0.4696610146311593 -0.4882043904666072
6.5 -0.26192469024533577 -0.5995806015106828
6.75 -0.6612333005629357 0.11007209018056474
7.0 -0.03195288662226827 0.6402656611923985
7.25 0.5689973431069912 0.3448090868699284
7.5 0.7015242467640315 -0.1062046743688158
7.75 0.365428685946217 -0.6179739884876969
8.0 -0.4434123247228507 -0.5503653734251676
8.25 -0.5899816524374626 0.36852711998841764
8.5 0.17496803823409754 0.7037163975574218
8.75 0.6411116537699502 0.28446370246049707
9.0 0.4378069516375945 -0.5206943684889996
9.25 -0.3427050005197472 -0.5851158191839071
9.5 -0.6742445375543119 -0.006319968975013163
9.75 -0.33038862712320854 0.5755768989247959
10.0 0.1694705370205139 0.6290307536518669
10.25 0.5982530735387862 -0.12250523260843535
10.5 0.05219589616886526 -0.5999437681913251
10.75 -0.48703115523479706 -0.3515479847604535
11.0 -0.3981410694456491 0.39629080375640113
11.25 0.07840641949381084 0.5369338575943172
11.5 0.49432080259533073 0.2952518954544098
11.75 0.3821975205565657 -0.4219187579065251
12.0 -0.33079570160809996 -0.4797687138541238
12.25 -0.5373354747279364 0.08274238633576539
12.5 -0.322794787771269 0.3992642153314881
12.75 0.1577783930125415 0.5087489722117523
13.0 0.5015538027887101 -0.1951843820823283
13.25 -0.08238279229768118 -0.48187354327478493
13.5 -0.4224690543002002 -0.17902575358032796
13.75 -0.4341782667170675 0.1884042335490522
14.0 0.1818676359325874 0.4520320875357639
14.25 0.5007605341427678 0.04305855080929984
14.5 0.21849702980337246 -0.43387112642037307
14.75 -0.34346138751777733 -0.35263091329014534
15.0 -0.4979467265248037 0.10220231957940722
15.25 -0.09731884186957905 0.5046690083284723
15.5 0.38055461916208283 0.3365475685290402
15.75 0.4521103731936168 -0.19965480363296986
16.0 -0.08223938129572098 -0.48131489058652993
16.25 -0.4235956546398771 -0.18270832046151952
16.5 -0.34949607219097106 0.3110300316072435
16.75 0.23813571974688794 0.411796223349274
17.0 0.4461851476385421 0.019637237154343855
17.25 0.26582233310120035 -0.35968764396222225
17.5 -0.12311267671294245 -0.45485608884341555
17.75 -0.4275141319199787 0.13376501068995797
18.0 -0.00467307015507623 0.4554783648282397
18.25 0.3167964408724524 0.28837180618682345
18.5 0.40645176367970404 -0.12677526624862223
18.75 0.03677352328472627 -0.4402040912753958
19.0 -0.4078530268215806 -0.16856673563934782
19.25 -0.30103321040955267 0.28256628124624955
19.5 0.12343508644265175 0.396807777732779
19.75 0.40731154362332667 0.10237578273137218
20.0 0.22851527052068904 -0.37653678330355306
20.25 -0.2617838153617115 -0.3207086579232886
20.5 -0.355421824494572 0.05170860412675011
20.75 -0.15835839902728233 0.3718426271077033
21.0 0.245009854178134 0.3020844405044133
21.25 0.37235382181533794 -0.09074732130997772
21.5 -0.10912517193840819 -0.3457177445294777
21.75 -0.34322793593645734 -0.07983621055458516
22.0 -0.3210323845532647 0.13243915926731756
22.25 -0.06967355719257676 0.36405754006406765
22.5 0.37280854790630436 0.09368809440179456
22.75 0.05627597391117189 -0.34277376680827404
23.0 -0.23704890175505147 -0.2188900987232543
23.25 -0.3563761032308436 -0.11796710263231089
23.5 -0.3114850251145778 0.17178603203542261
23.75 0.20253364059106185 0.2988251973763713
24.0 0.26906116477944375 -0.22405853792026212
24.25 -0.08658203831680937 -0.3188837579488402
24.5 -0.24551463943895147 -0.229685436799007
24.75 -0.31258097191229867 0.03950826576956127
25.0 0.03985588697146314 0.31588705470492795
25.25 0.30351354100015626 -0.09830292690972912
25.5 0.14758937493806282 -0.30567349449140324
25.75 0.09023102924061477 -0.28889211166879375
26.0 -0.2717613668856977 -0.11504392103704622
26.25 0.02349879193912491 0.27630306051272757
26.5 0.257890324089478 -0.07131917617568553
26.75 0.05717183934978298 -0.28420499805567373
27.0 0.028845948107103447 -0.27642162113544894
27.25 -0.17740428678199302 -0.18455692421489558
27.5 -0.16448540045195176 0.22500654652689223
27.75 0.253816815944208 0.13374646060791198
28.0 0.20186915382926912 -0.2100856312117093
28.25 0.2252761577516293 -0.19992563614537517
28.5 -0.019534951715506406 -0.25966721387243025
28.75 -0.24626947845591723 0.10585571666793027
29.0 0.21074060269118855 0.21955295658249635
29.25 0.22158120787951874 -0.1782657903549087
29.5 0.227974346386425 -0.13419511606412537
29.75 0.15092572498487153 -0.1810370769395198
30.0 -0.21423986093998715 -0.06631329646486428
30.25 0.0017495622624719004 0.2564008690234195
30.5 0.17184378928842292 0.10509662516915297
30.75 0.12691532124716048 0.1410574261782498
31.0 0.2341296561490344 -0.04222973765273022
31.25 -0.17935616335293367 -0.14861668567732206
31.5 -0.008672134844813653 0.18786638398476452
31.75 0.1212997034312574 0.18358694663400194
32.0 -0.03615503271741851 0.2401009104021465
32.25 0.1891642314274814 0.09677288525657415
32.5 -0.0203519904832129 -0.21439053574278677
32.75 -0.19259321108884792 0.06894996322390806
33.0 -0.06487981645659287 0.1795666465209826
33.25 -0.13350248535327644 0.16232383399702013
33.5 0.09866346022020821 0.21864381096818006
33.75 0.08646525108520406 -0.18199785139318816
34.0 -0.1840584682391386 0.0036063486578931593
34.25 -0.15159366570475427 0.10069832907488735
34.5 -0.20605080730652756 0.006809924231417231
34.75 0.02533721556258949 0.19998578008363907
35.0 0.0844743322942226 -0.15471231447829148
35.25 -0.1761724333739757 -0.01602456655299095
35.5 -0.17147934279395027 0.04211742531498155
35.75 0.02952976431095586 0.0043597415936758805
36.0 0.033520692541742454 -0.00884768540789741
36.25 0.03355654326272217 -0.018814285797893345
36.5 0.022604235938528307 -0.032370572550840485
36.75 0.005830689801820976 -0.037448130337097756
37.0 -0.011207099034749913 -0.033737028592033404
37.25 -0.01612246448650829 -0.029384655681189257
37.5 -0.013764985187651195 -0.030967456143354655
37.75 -0.020521975753375048 -0.021715746694218035
38.0 -0.027425784266110594 -0.018325357167718007
38.25 -0.03390094450908458 -0.015210312675285075
38.5 -0.028912521311530496 -0.022811308985055574
38.75 -0.028241755602759343 -0.02324513083094226
39.0 -0.016789099377957077 -0.035741565014253136
39.25 -0.007122852418117182 -0.04216088795061811
39.5 0.011389362168315601 -0.04033266040487845
39.75 0.025124133180104334 -0.035411451483674944
40.0 0.0351828779987017 -0.022087814956269197
