!Created with skrf (http://scikit-rf.org).
# GHz S RI R 50.0 
!freq ReS11 ImS11
0.25 0.3465051390306664 -0.47844205301172127
0.5 0.038883113486377886 0.11175841142641803
0.75 0.2326346082897916 -0.3253113429532115
1.0 -0.07673207408909496 -0.07343621079225739
1.25 -0.0765989758791218 0.12295470325388114
1.5 -0.05974134153596761 0.14741185969583784
1.75 0.07496660579517561 0.15069544180861108
2.0 0.11382950112669132 0.003657639595982448
2.25 0.0070375729297687435 0.01861173905570892
2.5 0.07559011860851379 -0.031295046496299654
2.75 0.09730256657311653 0.1078449105663634
3.0 0.06304423780452174 0.07353486324265786
3.25 0.12892987832482156 0.08379508233749133
3.5 -0.017925021548538183 -0.045364834035644674
3.75 0.0031258471147724166 -0.06673201514638434
4.0 -0.08338041090564002 -0.08593124434654276
4.25 -0.06980551698447961 -0.05135311178385792
4.5 0.0097453131043692 0.06076545302799449
4.75 -0.033261145486393334 0.018603102070561074
5.0 0.055510616343618625 0.033302945005612906
5.25 -0.060246753046256825 -0.0837606390566724
5.5 -0.025851743059410945 -0.08516794489444568
5.75 -0.054514512398011535 -0.032413733740199666
6.0 0.027778324592121435 0.04174417972944952
6.25 -0.005012075285641283 0.10246032354552463
6.5 0.05958756611520631 0.0595750936480185
6.75 -0.03102106114039832 0.03827679901468587
7.0 -0.06340358668073229 -0.08934273497185556
7.25 -0.07208214113745767 -0.10524605042960272
7.5 -0.08288669943291545 -0.07128152234795031
7.75 -0.05199650552257783 -0.03739666157083411
8.0 -0.014716091641739829 0.05249007464975736
8.25 -0.02573296817912936 0.042082840204567755
8.5 0.056142955802224954 0.02105675737442082
8.75 -0.010977318713782453 0.001781071918770697
9.0 0.05721092343134004 -0.037942225207263314
9.25 0.002641719093446848 -0.019956959709263634
9.5 0.032718641980494484 0.0152160975692742
9.75 0.04120276073995228 0.06924851604766616
10.0 0.08108722932660475 0.024643245696644188
10.25 0.06759039717268703 0.012949426632659609
10.5 0.03998723573150175 -0.05629030467449719
10.75 -0.06453402007154328 -0.043519613904322504
11.0 -0.08777280518215441 -0.04090805642389057
11.25 -0.10293435157804678 -0.004252747195322787
11.5 -0.05511373954647658 0.029424278402393464
11.75 0.0069529493305577755 0.015811502193135943
12.0 0.02560132513331883 0.02228066878900782
12.25 0.034353935627703974 0.0030711348246350093
12.5 0.05227962703695808 -0.01799365317030316
12.75 0.013578670163505769 0.010314320014635383
13.0 0.05026878815009967 -0.057910817956115725
13.25 0.00947907903495276 -0.03479291741264345
13.5 0.08293000532334358 -0.0326518621607037
13.75 0.07903732919615747 0.03491839984578947
14.0 0.17210322195696365 0.08079849146409875
14.25 0.19374431612669374 0.028671431357602306
14.5 0.13323037940439883 0.017336359339300972
14.75 0.07978237522337693 0.00027535464154499617
15.0 0.008205834915103526 0.028877357032874404
15.25 -0.01084945192356032 0.09674765495952652
15.5 0.022871057946222018 0.07706623777570082
15.75 0.04962165094967985 0.08162605905834691
16.0 0.05494665126279391 -0.024225409592131854
16.25 0.022730336947811063 -0.07710633282395848
16.5 0.025259331340942246 -0.05992861329603645
16.75 -0.005437248535960169 -0.004341300064059021
17.0 0.04180775535114453 0.06200177248415016
17.25 0.03404506901847274 0.12888321773372097
17.5 0.06385260555275701 0.06937536646236976
17.75 0.04820970407993422 -0.004393667287224921
18.0 0.05979296266587214 -0.06193442695060031
18.25 0.02694603450860475 -0.16061120710621485
18.5 0.0037132158998751247 -0.09544609704308557
18.75 0.004497706283764155 -0.028462293210348908
19.0 -0.01873323224484353 0.03843836470475674
19.25 0.0651383692086959 0.12609520986440012
19.5 0.09460892204024707 0.045421169947781836
19.75 0.12264552560915379 0.03846156414760585
20.0 0.1351290855358985 -0.07211511458828482
20.25 0.10244415544821045 -0.12121897388746207
20.5 0.07660916178161156 -0.10402883985164497
20.75 -0.0016881936434893375 -0.05319089012931316
21.0 0.04914991129180794 0.04159403455201486
21.25 0.11064383292424566 0.049181310887057184
21.5 0.19693497226431617 0.03450714447221903
21.75 0.27247000709646485 -0.06887574205966304
22.0 0.19573641379209694 -0.1660714947154974
22.25 0.11923545664651737 -0.15158400315814644
22.5 -0.00592302995298058 -0.08407346670371094
22.75 -0.12504234275292758 0.07748731569243694
23.0 -0.057993284505516586 0.19716836859791434
23.25 0.03175089118351593 0.19041872688257483
23.5 0.1640742175397034 0.08153191192894355
23.75 0.19912287765886155 -0.061072651550239374
24.0 0.10307204020626096 -0.2059304714981716
24.25 -0.020214499437275178 -0.13454592584356265
24.5 -0.11796249388431543 -0.04651189285329183
24.75 -0.09047299459729778 0.1257379960220124
25.0 0.04635677264372609 0.176503574911874
25.25 0.15963168007097575 0.11308614570132217
25.5 0.1918372955344468 -0.005391978653514328
25.75 0.11877321005353793 -0.12124294375628755
26.0 -0.05030802072923275 -0.15043985688487768
26.25 -0.1478704769236863 -0.0812179756313168
26.5 -0.13898677585281055 0.010856143398804648
26.75 0.04234547823213718 0.0026600704310225307
27.0 0.13696252859648916 -0.02169882977241518
27.25 0.23230919228010127 -0.05517704288092697
27.5 0.2107119556908594 -0.13186278477348587
27.75 0.09411098539705746 -0.10439340490456717
28.0 0.017277703924485965 -0.10378710480927025
28.25 -0.11110429100980024 -0.030838654999285384
28.5 -0.10054198819419392 0.07046485423145817
28.75 -0.04095012141609963 0.11075759996611353
29.0 0.03870965602944411 0.13623214996151245
29.25 0.14245930958086805 0.08270137302209445
29.5 0.18204059023775265 -0.06759128461212091
29.75 0.14280340123103102 -0.1894463492997428
30.0 0.040934808515684026 -0.20221737791009048
30.25 -0.049030548735075695 -0.08334535589684283
30.5 -0.06906655363224085 0.12089138812352468
30.75 0.027186441754315588 0.21100678859324817
31.0 0.14119513785884594 0.15980368318744254
31.25 0.23274426093442724 -0.05161253419529176
31.5 0.1503789446835967 -0.2294941386833035
31.75 0.08771165647973654 -0.24858702886932177
32.0 0.018845396433228023 -0.1685799035571099
32.25 -0.03583782636325539 -0.019891427921359076
32.5 0.007933150297662464 0.0906499537327294
32.75 0.0696031527287592 0.07366619366525214
33.0 0.14301683682079003 -0.020332782868294565
33.25 0.15922212068815314 -0.122826469571729
33.5 0.09340510673612434 -0.13858006376704513
33.75 0.012899728370415725 -0.059643346007564296
34.0 -0.06636276353085503 0.07549173370860959
34.25 -0.03506977086713276 0.14647401632750134
34.5 0.04822405901544585 0.11412022132606323
34.75 0.18163256960257615 0.03143095233602017
35.0 0.21290667648839529 -0.04131333893076359
35.25 0.1679953017800517 -0.0830939737562416
35.5 0.07227124827737308 -0.015891680036545085
35.75 -0.00176984840987973 0.0599573141767615
36.0 -0.045121082827077615 0.1066881728088307
36.25 -0.029467354267503344 0.05214258793268041
36.5 0.07093880361351335 -0.01825700342674876
36.75 0.11311421568480051 -0.0945947227013455
37.0 0.1258149984452673 -0.10059256143630702
37.25 0.06708768436973495 -0.11305337505348328
37.5 -0.0008915966073855235 -0.07514411491944595
37.75 -0.0450072011194147 -0.07580575121316421
38.0 -0.07709725688054286 -0.0517257603777137
38.25 0.028529818288666534 -0.00042814242499469185
38.5 0.08554542610386562 -0.016975949160729586
38.75 0.11859081126546117 -0.0004854369170461774
39.0 0.13509754776435248 -0.06477749611395364
39.25 0.009085252754790583 -0.1100121447003018
39.5 -0.06762242969597772 -0.057265246960093
39.75 -0.04418181999092702 0.014456282854810747
40.0 0.025395462313233235 0.07251730615391441
