!Created with skrf (http://scikit-rf.org).
# GHz S RI R 50.0 
!freq ReS11 ImS11
0.25 0.4007318831938905 0.365906691388374
0.5 0.029940849761744458 0.07321956889707962
0.75 0.008793370829400793 -0.24303401423007165
1.0 0.0641732866670748 -0.04417019961642002
1.25 0.04091150242071971 -0.12122235262281003
1.5 -0.023160671458138618 -0.03405432198368283
1.75 -0.02396920514089971 0.03680655989498394
2.0 0.03189110073578614 0.052492868773989176
2.25 0.02718723944335721 -0.006402652880750806
2.5 0.007094504232765206 -0.03942891682076198
2.75 -0.045448455853599995 0.021234141339103424
3.0 -0.09334566187033157 0.00916440976062878
3.25 -0.107524587665118 -0.01737110230258082
3.5 -0.057100570670543915 -0.011867429174640082
3.75 0.032320579385772354 0.007330617258346323
4.0 0.027276911098562808 0.03427811774259239
4.25 -0.002092919951977612 0.025402801274349136
4.5 -0.05260179163365448 0.0032052775429626257
4.75 -0.050664282497579274 -0.027953497072914286
5.0 -0.016263350424608313 0.013122722066555268
5.25 -0.03673006180146183 0.022967476471965696
5.5 -0.04038778919265368 0.05906603133661071
5.75 -0.013425450357773823 -0.0037824608605829596
6.0 0.06145367099830866 -0.04608036988498866
6.25 0.10536145987966214 -0.042968543460911515
6.5 0.09714391969783243 -0.015413795573527046
6.75 0.04648475158104545 -0.009118999683198275
7.0 0.0062070948158878215 0.013639525293129335
7.25 -0.011467957500548739 0.036601176377143455
7.5 -0.05754932143803014 0.04244946582990695
7.75 -0.06366891183798692 -0.01601583086936765
8.0 -0.032366945657969694 -0.05370110121412575
8.25 0.015968622639459668 -0.08136473268070164
8.5 0.001669536969220807 -0.05725341209732653
8.75 -0.045025369541965524 -0.03171714455659437
9.0 -0.10530600009748592 -0.02856823963244809
9.25 -0.12894853050107233 -0.045046254271147036
9.5 -0.08902553144148712 -0.024996115033567343
9.75 -0.08499218236225935 0.04272542249101606
10.0 -0.14679261480624634 0.02428196536462389
10.25 -0.16027901795241284 -0.07270436979132196
10.5 -0.08084062580840584 -0.14936035991763377
10.75 0.06919214531629067 -0.13356860627234599
11.0 0.08361964121907497 -0.010037845044970708
11.25 -0.0061228742051277485 0.11312498642507338
11.5 -0.13567504160113333 0.0619210971512239
11.75 -0.15244304290992702 -0.0350090065984345
12.0 -0.12199212533177647 -0.08569450597507355
12.25 -0.031325628534490564 -0.03480928173511438
12.5 -0.08655969226579817 0.013800595471370646
12.75 -0.14481243180103584 -0.06598127595576976
13.0 -0.12441422952162456 -0.09463091827987856
13.25 -0.00656883289367818 -0.10112485439177242
13.5 0.10032403751748845 0.004597714123552449
13.75 0.09991730668046352 0.13886339731788055
14.0 0.04388349096187993 0.15577058169898103
14.25 -0.037683333820130546 0.11640464241468551
14.5 -0.029100090829581184 0.0468492930572746
14.75 -0.02846495732199457 0.05312647972353307
15.0 -0.04477274347700429 0.060380390223788
15.25 -0.06108922566060237 0.046222251563972104
15.5 -0.03059369946499694 0.014307954807027592
15.75 0.006610882685363556 0.06059256589433264
16.0 -0.01706653786545376 0.07970518849632008
16.25 -0.11875842699278914 0.053395420448020786
16.5 -0.15758883398441656 -0.04359971494478319
16.75 -0.12189040497511372 -0.061671104640183806
17.0 -0.0190004419190297 -0.007290249548437663
17.25 -0.015570768620666104 0.0866727931644002
17.5 -0.03420800439275834 0.12085969884880514
17.75 0.00024252940051184733 0.057611640582239595
18.0 0.10552545944694033 0.010291156706467679
18.25 0.1475003391083269 0.04626489460870121
18.5 0.11711160080065139 0.06616424655513196
18.75 0.04041579643634858 0.0269668637216834
19.0 0.017030532321009963 -0.025834474308674606
19.25 0.04628388113855815 0.0019211976576731411
19.5 0.03186299005345895 0.0394734963032506
19.75 -0.008838989644749277 0.022901358235584948
20.0 0.0156495340240927 -0.04721020853378587
20.25 0.12264747926908473 -0.0306436826618268
20.5 0.14046569231221326 0.07518516021509214
20.75 0.015963361253495706 0.16083340113426153
21.0 -0.11821041933743787 0.08293791104543319
21.25 -0.09101897725503819 -0.038095387306591885
21.5 0.06656612412833102 -0.05260750173533661
21.75 0.21705795020169405 0.07700738471030505
22.0 0.0539497012648175 0.2544646193155094
22.25 -0.09850964347562156 0.12537124232066632
22.5 -0.06556683098674487 -0.1082893122025587
22.75 0.08917850275287191 -0.21776550611685508
23.0 0.25897234916130174 -0.07049731118599885
23.25 0.07598763681901752 0.13970109131557945
23.5 -0.07770033223399189 -0.005545398745725939
23.75 -0.03222836396489785 -0.1884227557787136
24.0 0.11143106796176468 -0.259773926893065
24.25 0.2349192305516792 -0.08926563586213106
24.5 0.014559323357155374 0.09987129686402077
24.75 -0.1741602215059761 -0.07591416365990221
25.0 -0.15527038247508868 -0.253533371319783
25.25 -0.001853220334746608 -0.27290039970440816
25.5 0.15558819193388204 -0.00788951054697589
25.75 -0.066072474593468 0.11844975721228419
26.0 -0.11647630088924724 -0.0029515434424790404
26.25 -0.062463537854581405 -0.13962441044576474
26.5 0.10327161192386408 -0.2050513882252754
26.75 0.2822516364078925 -0.03623560969340171
27.0 0.0139123877051371 0.195570278181265
27.25 -0.15567524896233348 0.06491106734724905
27.5 -0.08575415654657706 -0.10035920064054431
27.75 0.08216245705139942 -0.13861420750522072
28.0 0.1785652722947055 0.010775925741719573
28.25 -0.008513737953783157 0.09312002010085935
28.5 -0.06818583309353854 -0.08273864213854433
28.75 -0.01797893276176757 -0.1623754843116616
29.0 0.03785494480852247 -0.0868584435820173
29.25 0.009965460870486331 0.14059496016773035
29.5 -0.27860165828435834 0.020198085693455454
29.75 -0.12434327162141022 -0.19772050528683038
30.0 0.04978415771167037 -0.1143051269755446
30.25 0.1852637400846847 -0.014636515749267644
30.5 0.07841127763188546 0.15314259977953576
30.75 -0.12034618702952807 -0.011003407881341125
31.0 -0.01155858881411502 -0.189815643859825
31.25 0.0954498869772166 -0.17928338299498292
31.5 0.14642387631742101 -0.034922094062139745
31.75 -0.015883301944899238 0.17948998997831586
32.0 -0.1451775089618704 -0.10420222289676831
32.25 0.025598223887807386 -0.1252275672351224
32.5 0.13462040412643303 -0.01403993619376475
32.75 0.10607824382551642 0.09868713548426482
33.0 -0.10850008318612231 0.12410437458675856
33.25 -0.05373986309831677 -0.16676556031909825
33.5 0.15613051217885396 -0.03590069015127864
33.75 0.2039575567615359 0.13892554643115101
34.0 0.14447571364387995 0.258080314111086
34.25 -0.19067481496357153 0.13990093171749293
34.5 0.10976924873592403 -0.15866617516486764
34.75 0.3772062126502765 -0.04435886563967391
35.0 0.35313415239637935 0.027031788941480506
35.25 0.17837758308306595 0.20516367335788613
35.5 -0.2422607070589104 0.02241991623527255
35.75 -0.024574534377521405 0.015784774664193757
36.0 -0.02201253144965885 0.0011756786020691128
36.25 -0.01974495217641391 -0.018176625313031936
36.5 -0.019019872325567296 -0.023788823545804468
36.75 -0.018746074603341798 -0.027021615300872718
37.0 -0.017139974826106057 -0.029470810118755297
37.25 -0.004197583430972636 -0.030926879610632015
37.5 0.003062910377143716 0.0005830990273103147
37.75 0.03321021980338111 -0.005388320618452824
38.0 0.02389349845072758 -0.007349038922539181
38.25 0.0069552995632253724 0.005904737156487909
38.5 0.0013136144957220522 0.01028442731639138
38.75 -0.008459945577027993 0.003037533763159994
39.0 -0.007386473275474583 -0.007886548765115764
39.25 -0.00047082003137241155 -0.001894794560623747
39.5 0.011565253180663286 0.0009741421897769042
39.75 0.007363481893779957 -0.00308958917239981
40.0 -0.0028578904402268047 0.0005558190056969801
