!Created with skrf (http://scikit-rf.org).
# GHz S RI R 50.0 
!freq ReS11 ImS11
0.25 0.9999968502356863 -0.0025098842016620746
0.5 0.9999968042376456 -0.0025281444768861868
0.75 0.9999933233190436 -0.003654219114169721
1.0 0.9999904884336113 -0.004361541276576473
1.25 0.9999792152980834 -0.006447400393120192
1.5 0.9999760167743293 -0.006925740115371276
1.75 0.9999661073299805 -0.008233115529737716
2.0 0.9999557173623219 -0.009410808382077173
2.25 0.9999427787272954 -0.010697629229657897
2.5 0.9999256928992244 -0.012190515986048117
2.75 0.9999387080582093 -0.011071590982321028
3.0 0.9999473234970246 -0.01026402606856308
3.25 0.9999508646380565 -0.009913037355087001
3.5 0.9999587714672935 -0.009080493688147489
3.75 0.9999717037050191 -0.007522751443542037
4.0 0.99997553907624 -0.006994372679761207
4.25 0.9999810349975593 -0.006158704832225151
4.5 0.9999843463369019 -0.0055952731084734034
4.75 0.999989609389667 -0.004558630572995831
5.0 0.9999930529813431 -0.003727464158486765
5.25 0.9999955889751213 -0.002970190280151126
5.5 0.9999983591334616 -0.0018115546871222692
5.75 0.9999991022754273 -0.0013399434095009916
6.0 0.9999999158940144 -0.00041013651457287673
6.25 0.9999999844997253 0.00017606988776767063
6.5 0.9999988461519621 0.0015191098530755404
6.75 0.9999983810249407 0.0017994297699162637
7.0 0.9999955086347445 0.002997117004691802
7.25 0.9999935605722367 0.003588706460658487
7.5 0.9999891988434059 0.004647816317779275
7.75 0.999986516716769 0.005192916778087989
8.0 0.9999812426678315 0.006124892856122904
8.25 0.9999762210466321 0.006896183096299351
8.5 0.999971663977272 0.007528030454621765
8.75 0.9999674106541958 0.008073266349068237
9.0 0.9999630160503739 0.00860037972645589
9.25 0.9999571642899693 0.009255786577268667
9.5 0.9999477969020688 0.010217801656880096
9.75 0.9999420282447516 0.010767550778723333
10.0 0.9999394545729999 0.011003962388681222
10.25 0.9999289182326521 0.011923023193731083
10.5 0.9999232561617571 0.012388776649414759
10.75 0.9999168250327078 0.012897403479319865
11.0 0.999904120179015 0.013847398637622384
11.25 0.9998919044111243 0.014703043667750418
11.5 0.9998851183940899 0.015157506854272692
11.75 0.9998791690951827 0.01554500593524949
12.0 0.999875209821721 0.015797619566569245
12.25 0.9998684903896156 0.016217334120961307
12.5 0.9998609985654888 0.016672838619246098
12.75 0.9998531924997942 0.017134568800208097
13.0 0.9998475864012352 0.01745863590386653
13.25 0.9998269046517324 0.01860539530714687
13.5 0.9998050246785651 0.019746205394804903
13.75 0.9997955468275309 0.02022039920078977
14.0 0.9997827395633366 0.020844032029076396
14.25 0.9997670754951146 0.02158227874774775
14.5 0.9997639462501174 0.021726752596558874
14.75 0.9997429759247545 0.022671173086457688
15.0 0.9997072858841143 0.024193853562784362
15.25 0.9997075104744488 0.024184571548417584
15.5 0.9996763309304827 0.025440781775873618
15.75 0.9996614346659239 0.026019531926373567
16.0 0.999644901113735 0.026647170155766477
16.25 0.9996326746808354 0.027101950306917942
16.5 0.9996309950741629 0.0271638304927478
16.75 0.999615017556358 0.027745570381635755
17.0 0.9996020211719497 0.02820991437336375
17.25 0.9995683250155873 0.029379646450100133
17.5 0.9995363464556819 0.030448187368493262
17.75 0.999512883823576 0.03120889409574562
18.0 0.9994965557004278 0.03172751397416955
18.25 0.9994882321157491 0.031988652083733415
18.5 0.9994639887485975 0.03273736694885045
18.75 0.9994098917548613 0.03434921050819979
19.0 0.9993920975537848 0.03486309434123519
19.25 0.9994047127044572 0.034499568462835035
19.5 0.9993395452811517 0.03633831637900949
19.75 0.9993053675806534 0.037266369886206796
20.0 0.9993380853806664 0.03637844289829397
20.25 0.9993020081705624 0.03735634439130004
20.5 0.999232630787109 0.03916822143361935
20.75 0.9992110303844103 0.03971544734891987
21.0 0.9992146416953596 0.039624485127429894
21.25 0.9991659038625454 0.040834991839626564
21.5 0.999099496281762 0.04242872293069488
21.75 0.9991392097609324 0.04148300276378523
22.0 0.9991110509308218 0.0421557577076786
22.25 0.9990745736303981 0.04301158361695626
22.5 0.9990108771049224 0.04446647530503782
22.75 0.9989924206537694 0.04487920984512579
23.0 0.9989434788816689 0.04595569605379189
23.25 0.9989443240574432 0.04593732070351969
23.5 0.9989200927643425 0.04646125559729368
23.75 0.9988585084269004 0.04776693566880492
24.0 0.9988047073293832 0.04887899975107381
24.25 0.9987062125724828 0.050851754828387684
24.5 0.9986505231693643 0.05193392507363873
24.75 0.9985944196520065 0.05300174563042493
25.0 0.9986725935890721 0.05150777430715002
25.25 0.9985983260894341 0.0529280939707819
25.5 0.9985550668494202 0.0537380542013769
25.75 0.9985738830521175 0.05338726520638438
26.0 0.9984827014459586 0.055066277458901615
26.25 0.9984874443936672 0.0549802090592906
26.5 0.998394329850108 0.0566459365105176
26.75 0.9982409339123259 0.05928775473777822
27.0 0.9982861288013137 0.058521833898871965
27.25 0.9982405733977331 0.05929382448927248
27.5 0.998266770464188 0.05885112562219923
27.75 0.9982492311035274 0.059147887546521685
28.0 0.9982751879720572 0.0587081687617119
28.25 0.9981654436238743 0.060545413989454205
28.5 0.9981614251221441 0.06061162758192656
28.75 0.9980997522490538 0.06161886529608534
29.0 0.9980150216183046 0.06297631796330859
29.25 0.9980053841132062 0.06312886250402718
29.5 0.9978295967811681 0.06584903786336917
29.75 0.9979472293715405 0.064041606707406
30.0 0.9978337399428507 0.06578622524254435
30.25 0.9978687875039458 0.0652524553208966
30.5 0.9978943761597298 0.06485995705197087
30.75 0.9978272271289279 0.06588493606428245
31.0 0.9977550586178655 0.06696897044497423
31.25 0.9976536980283809 0.06846238975011101
31.5 0.9974674523921925 0.07112440803429881
31.75 0.9977816444800567 0.0665716902194442
32.0 0.9977346676063119 0.06727208229660882
32.25 0.9975911777291081 0.06936744277433837
32.5 0.9975139904706763 0.0704687080573237
32.75 0.9974209542591874 0.07177353275889628
33.0 0.9973255050449279 0.07308787168114146
33.25 0.9975480325344415 0.0699851611891043
33.5 0.9974419759321222 0.07148079916049922
33.75 0.9972855782076434 0.07363066955451207
34.0 0.9971130127051031 0.07593181081834366
34.25 0.9970031378368575 0.07736112165332498
34.5 0.9968036585109123 0.07989033971176188
34.75 0.996806735433951 0.07985193919692522
35.0 0.9970883298261702 0.07625524588157312
35.25 0.9967498160511509 0.08055932101251213
35.5 0.9968192920382231 0.07969503761474554
35.75 0.9969126421606509 0.07851868503910617
36.0 0.9968048129725217 0.07987593401530028
36.25 0.9964536533512236 0.08414342947015885
36.5 0.9965373814792116 0.08314593985611211
36.75 0.9959592898982014 0.08980586208856532
37.0 0.9958702406081852 0.09078801611994396
37.25 0.9956487303956527 0.09318586621116512
37.5 0.9962087340013062 0.08699516250639468
37.75 0.9959607795597203 0.08978934000645653
38.0 0.9959121712600972 0.0903268904368929
38.25 0.995935398242835 0.0900704309242822
38.5 0.9959516067558284 0.08989102847606147
38.75 0.9957733079128207 0.09184508287523213
39.0 0.9960042347141188 0.08930601565148077
39.25 0.9956213479137529 0.09347797376067547
39.5 0.9956239710396976 0.09345003098524844
39.75 0.9957041482170368 0.0925918420995327
40.0 0.9957050252486133 0.09258241028758164
