!Created with skrf (http://scikit-rf.org).
# GHz S RI R 50.0 
!freq ReS11 ImS11
0.25 0.2927200212303651 -0.4550110003079703
0.5 0.009547592624785118 0.0972442085671752
0.75 0.05779346813805094 -0.23335248697759156
1.0 0.00012766274964971487 -0.01129807292736539
1.25 0.0072724029120462145 0.08496772956794288
1.5 0.002126612364097704 0.046066146832034596
1.75 0.0022640846209414514 0.047528502414558235
2.0 0.0028117425600593013 0.052951266876584295
2.25 0.00031179234190986254 0.01765488961861243
2.5 0.0006591967587714322 0.025666363560205747
2.75 0.0004058647775411862 0.02014199720294732
3.0 0.0006263543869498634 0.0250192339437444
3.25 0.0001638607714326572 0.012799762539994352
3.5 4.263458212280276e-05 -0.006529377031173033
3.75 7.07631542314229e-06 -0.0026601250626431686
4.0 6.388195201564961e-06 -0.002527479850073394
4.25 2.452500173715626e-06 -0.0015660441114344525
4.5 2.628402793846236e-06 0.0016212328288512385
4.75 2.0377665381469495e-05 -0.004514116761031231
5.0 3.1674936005710766e-06 -0.001779742556538829
5.25 4.185762570429384e-05 -0.0064696115527490715
5.5 3.210123568793673e-05 -0.005665704298549654
5.75 9.587328341481808e-05 -0.00979102097476792
6.0 4.651495379865182e-05 -0.006820028603878794
6.25 5.704302127269099e-05 -0.0075524676342514085
6.5 2.56390892105626e-05 -0.005063440712368128
6.75 0.00010767857643855976 -0.010376270127687305
7.0 9.854548119549817e-05 -0.009926518522807185
7.25 0.00023640614347351376 -0.01537368711821734
7.5 0.0001776058246498438 -0.013325700012415644
7.75 0.00022113619141416564 -0.014869004344575748
8.0 0.00020686899280415011 -0.014381453265368084
8.25 0.0003833683157698768 -0.01957604006188025
8.5 0.00033402983933473313 -0.018273430531817694
8.75 0.00037363435867411934 -0.019326012419538015
9.0 0.0004157602198689263 -0.020385959955530688
9.25 0.0004200226890491085 -0.020490150560447146
9.5 0.0004541283865179075 -0.02130544892572006
9.75 0.0004435771695465123 -0.021056600125404133
10.0 0.0005040249584362194 -0.022444841663007847
10.25 0.0004171399899565457 -0.020419744958870684
10.5 0.00037878150465814683 -0.01945862351837549
10.75 0.0004422352201762159 -0.02102473895643538
11.0 0.00039432495206179094 -0.0198537014154533
11.25 0.0003996901325893003 -0.019988256061678093
11.5 0.0004309344782270634 -0.020754488037591737
11.75 0.00042907861117120214 -0.020709768292200604
12.0 0.0004836853109279109 -0.021987527360935868
12.25 0.0005373981400858717 -0.023175619588802886
12.5 0.0005520633035379941 -0.023489540856451
12.75 0.00046736336675489625 -0.021613535995720638
13.0 0.0004462745242888805 -0.021120496285311367
13.25 0.0003932219974284477 -0.019825926810345743
13.5 0.00033157582079415944 -0.018206204389416922
13.75 0.0004018856537550007 -0.02004305719385909
14.0 0.0003846861870413666 -0.01960964567703522
14.25 0.0004743404149373628 -0.021774191514453985
14.5 0.0004867126532716034 -0.022056195593636467
14.75 0.00029975852733747497 -0.017310940822577017
15.0 0.0003572040648510173 -0.018896467132960892
15.25 0.00037462628753972004 -0.019351639276412844
15.5 0.00041515371335861635 -0.020371091299999144
15.75 0.0003782702635095119 -0.019445492411282784
16.0 0.0003334555694065415 -0.01825772101851086
16.25 0.00036788218525864126 -0.019176726726853326
16.5 0.00035084291409990083 -0.018727515140816914
16.75 0.00029388504817545177 -0.017140556576549976
17.0 0.0002733742366994101 -0.016531772537333046
17.25 0.00020712715597873236 -0.014390422312079256
17.5 0.00025881573644445644 -0.016085669114433047
17.75 0.00024543250734171743 -0.015664363064805967
18.0 0.00026940214991657624 -0.016411263583228336
18.25 0.00036044897901318983 -0.01898207195083609
18.5 0.00030027509966763175 -0.01732584585329534
18.75 0.00030629978665773727 -0.017498741871872697
19.0 0.00026887676955497154 -0.01639525769354557
19.25 0.00030212089864853 -0.017378999442175313
19.5 0.00029048472741899194 -0.01704113687645658
19.75 0.00025307822511197643 -0.015906419349556663
20.0 0.00019830456558027045 -0.014080669049428741
20.25 0.00022726719239304723 -0.015073670489177777
20.5 0.00017262239485669139 -0.013137450147021883
20.75 0.00022719763655994126 -0.01507136416499458
21.0 0.00027641573824219076 -0.016623457299305786
21.25 0.0002620906746313522 -0.016187093102519163
21.5 0.0003330628727115073 -0.018246970757753972
21.75 0.00027539461506324484 -0.0165927325317212
22.0 0.0001999506605284166 -0.014138977341440605
22.25 0.00029711742562711836 -0.017234533555118545
22.5 0.00028565672162986856 -0.0168989680710763
22.75 0.00019238611972225922 -0.013868998064142823
23.0 0.00016166350918539975 -0.012713668789739554
23.25 0.00014459654314839424 -0.012023960869368454
23.5 0.00018867715434749238 -0.013734684389490706
23.75 0.00021439518620442374 -0.014640670097661382
24.0 0.00024417074525520796 -0.015624056000359493
24.25 0.00021113723953141388 -0.014529028205544131
24.5 0.000189719217062894 -0.013772553273869411
24.75 0.00018127190494584088 -0.013462505169630138
25.0 0.0002850598155819034 -0.016881307902038983
25.25 0.00026772506522141856 -0.016360115785374833
25.5 0.0003391464374881986 -0.018412805793309655
25.75 0.0002903238454407694 -0.017036418564520477
26.0 0.00027669853012975544 -0.016631956230497347
26.25 0.00025663314810416384 -0.016017717925205763
26.5 0.0002557128322044073 -0.0159889788026582
26.75 0.000284832120617648 -0.01687456640274684
27.0 0.0003640654586665498 -0.019077025842839226
27.25 0.00034386338406643314 -0.0185403652078251
27.5 0.00034940931589728144 -0.018689227619868232
27.75 0.00025633772478100137 -0.016008498235370348
28.0 0.00031684339785614313 -0.017797275300376128
28.25 0.00027638806023010283 -0.01662262524002346
28.5 0.00039054806294139125 -0.019758429470783448
28.75 0.0003342205657933369 -0.01827864498278627
29.0 0.00026613257562676596 -0.01631139935992483
29.25 0.00029873232617097403 -0.017281292925249384
29.5 0.00029306010264363837 -0.017116489664060118
29.75 0.0003939882317171372 -0.01984522625193287
30.0 0.00045807059196803854 -0.021397681259912545
30.25 0.0003257426513318759 -0.01804540226919254
30.5 0.0002831442232837065 -0.016824507500444928
30.75 0.00046802063490947193 -0.02162872145076474
31.0 0.00030624726172443834 -0.017497241906629876
31.25 0.00036057148407258314 -0.018985296212528705
31.5 0.0002836423701131104 -0.01683929681189173
31.75 0.0003017531715530578 -0.01736842297321537
32.0 0.0005747714216323053 -0.023967500066656516
32.25 0.0005337729485002427 -0.023097359912762586
32.5 0.0004359544819675915 -0.020874971273207633
32.75 0.00031085233864382064 -0.01762826450525917
33.0 0.00028267523031288587 -0.01681057182332158
33.25 0.0005045572741726176 -0.02245668488734918
33.5 0.000467983491765997 -0.02162786358421542
33.75 0.00036327680023893485 -0.019056359311404238
34.0 0.00018757046068624818 -0.01369435204777963
34.25 0.00027194362183115517 -0.016488470774990036
34.5 0.00018678815509646612 -0.013665769838599719
34.75 0.00033740836481610157 -0.018365579773354655
35.0 0.0003390549848983941 -0.01841032391392421
35.25 0.0006296812136218913 -0.02508554793483896
35.5 0.0004945202088072878 -0.02223231113875409
35.75 0.0004666960475825742 -0.021598107379623453
36.0 0.0001349341513839458 -0.011615332287917383
36.25 0.000331184953805351 -0.018195473896871275
36.5 0.00043996623810514175 -0.020970757444939116
36.75 0.0003293583852869627 -0.018145244785921295
37.0 0.00044095008538183123 -0.02099418129873211
37.25 0.00029647766234225164 -0.017215974074619875
37.5 0.00044597659733269524 -0.021113448373189226
37.75 5.401884224198706e-05 -0.0073495526535068715
38.0 0.00010963596534917599 -0.010470145428993712
38.25 0.00028191883116346567 -0.016788071745620494
38.5 0.0005495016035747289 -0.023435009100966818
38.75 0.0006030480056199464 -0.024549630113768806
39.0 0.000642821011710482 -0.025345764791329252
39.25 0.0004271819767819815 -0.020663966036090317
39.5 0.0003290492667147372 -0.018136730501796944
39.75 0.0003084807144528543 -0.017560909831260595
40.0 0.000382966091837246 -0.019565771868488832
