!Created with skrf (http://scikit-rf.org).
# GHz S RI R 50.0 
!freq ReS11 ImS11
0.25 -4.095535122381181e-08 0.0
0.5 3.125217600619557e-09 0.0
0.75 -5.255634941931171e-09 0.0
1.0 -1.7983737391393583e-10 0.0
1.25 1.089767964843664e-09 0.0
1.5 4.898186529044564e-10 0.0
1.75 4.3323207963348384e-10 0.0
2.0 4.2256092585878204e-10 0.0
2.25 1.2492174753506186e-10 0.0
2.5 1.6350492719006456e-10 0.0
2.75 1.166181827979893e-10 0.0
3.0 1.3281434733308385e-10 0.0
3.25 6.269167204859274e-11 0.0
3.5 -2.969219819508729e-11 0.0
3.75 -1.1290001303938304e-11 0.0
4.0 -1.005658703604963e-11 0.0
4.25 -5.864571122502829e-12 0.0
4.5 5.7339532625728045e-12 0.0
4.75 -1.512544498361655e-11 0.0
5.0 -5.665114450297001e-12 0.0
5.25 -1.961359542623982e-11 0.0
5.5 -1.6395523502221937e-11 0.0
5.75 -2.7103283455571717e-11 0.0
6.0 -1.809152926557173e-11 0.0
6.25 -1.9233298029951297e-11 0.0
6.5 -1.2398342781080247e-11 0.0
6.75 -2.4468333703166265e-11 0.0
7.0 -2.2571574192326155e-11 0.0
7.25 -3.375692239090673e-11 0.0
7.5 -2.8283036927239474e-11 0.0
7.75 -3.054192218621005e-11 0.0
8.0 -2.86169121521492e-11 0.0
8.25 -3.777961735085865e-11 0.0
8.5 -3.422680684991241e-11 0.0
8.75 -3.51654865405806e-11 0.0
9.0 -3.606528669592793e-11 0.0
9.25 -3.527004390941364e-11 0.0
9.5 -3.570955894881247e-11 0.0
9.75 -3.438717125812094e-11 0.0
10.0 -3.5740088872634694e-11 0.0
10.25 -3.171960563187793e-11 0.0
10.5 -2.950580595561095e-11 0.0
10.75 -3.1141131073639943e-11 0.0
11.0 -2.8736920038616195e-11 0.0
11.25 -2.8288904627175547e-11 0.0
11.5 -2.8735682000688907e-11 0.0
11.75 -2.80636329428733e-11 0.0
12.0 -2.9175975873138825e-11 0.0
12.25 -3.012651170094996e-11 0.0
12.5 -2.9924332431924214e-11 0.0
12.75 -2.699223158347261e-11 0.0
13.0 -2.5868709040908257e-11 0.0
13.25 -2.3823664239741502e-11 0.0
13.5 -2.1470877916687407e-11 0.0
13.75 -2.320897555123055e-11 0.0
14.0 -2.2301236418895525e-11 0.0
14.25 -2.4330630203717427e-11 0.0
14.5 -2.4221116686236002e-11 0.0
14.75 -1.8684392680504703e-11 0.0
15.0 -2.005693876128241e-11 0.0
15.25 -2.0203693738205128e-11 0.0
15.5 -2.0925847937483964e-11 0.0
15.75 -1.9657253139160343e-11 0.0
16.0 -1.8167348939240125e-11 0.0
16.25 -1.878888656373176e-11 0.0
16.5 -1.807044053140495e-11 0.0
16.75 -1.62913806678445e-11 0.0
17.0 -1.5481369368636562e-11 0.0
17.25 -1.3279891751701917e-11 0.0
17.5 -1.4633008695794285e-11 0.0
17.75 -1.4048861073395614e-11 0.0
18.0 -1.451465317685336e-11 0.0
18.25 -1.6559889987776093e-11 0.0
18.5 -1.49098500880735e-11 0.0
18.75 -1.485794440812326e-11 0.0
19.0 -1.3737305774994983e-11 0.0
19.25 -1.4372932842417697e-11 0.0
19.5 -1.3912662799618178e-11 0.0
19.75 -1.2821398064131415e-11 0.0
20.0 -1.1207262857680552e-11 0.0
20.25 -1.1849849471605229e-11 0.0
20.5 -1.0201225011218151e-11 0.0
20.75 -1.1562540745770758e-11 0.0
21.0 -1.2602080558456021e-11 0.0
21.25 -1.2126735393929407e-11 0.0
21.5 -1.351192168014744e-11 0.0
21.75 -1.2145024682788843e-11 0.0
22.0 -1.0230628048811332e-11 0.0
22.25 -1.2331579465033344e-11 0.0
22.5 -1.1956990268702519e-11 0.0
22.75 -9.704370712116893e-12 0.0
23.0 -8.799001750196806e-12 0.0
23.25 -8.232041111369534e-12 0.0
23.5 -9.303640117936297e-12 0.0
23.75 -9.813198707703192e-12 0.0
24.0 -1.0363554408477582e-11 0.0
24.25 -9.537546338355963e-12 0.0
24.5 -8.948513756177913e-12 0.0
24.75 -8.658637220781757e-12 0.0
25.0 -1.0750038797940348e-11 0.0
25.25 -1.0314814194889809e-11 0.0
25.5 -1.1496012785492575e-11 0.0
25.75 -1.0532884072168444e-11 0.0
26.0 -1.0183810335242031e-11 0.0
26.25 -9.714108142527565e-12 0.0
26.5 -9.605192063072303e-12 0.0
26.75 -1.0042750799052096e-11 0.0
27.0 -1.1249291635480776e-11 0.0
27.25 -1.0832314816446056e-11 0.0
27.5 -1.0820082303998e-11 0.0
27.75 -9.183729363811113e-12 0.0
28.0 -1.0119364602515367e-11 0.0
28.25 -9.367449136454845e-12 0.0
28.5 -1.1038176615715912e-11 0.0
28.75 -1.0122119375359642e-11 0.0
29.0 -8.954244522633513e-12 0.0
29.25 -9.405897681839314e-12 0.0
29.5 -9.237194980144625e-12 0.0
29.75 -1.062087644914548e-11 0.0
30.0 -1.1357024796471172e-11 0.0
30.25 -9.497358062277499e-12 0.0
30.5 -8.78184237640581e-12 0.0
30.75 -1.119977158322159e-11 0.0
31.0 -8.985889129471686e-12 0.0
31.25 -9.672619633336967e-12 0.0
31.5 -8.510532442209224e-12 0.0
31.75 -8.708991335514188e-12 0.0
32.0 -1.1927312069250907e-11 0.0
32.25 -1.140472009692956e-11 0.0
32.5 -1.0227088899188653e-11 0.0
32.75 -8.569459055146684e-12 0.0
33.0 -8.109824573447173e-12 0.0
33.25 -1.0754576390812344e-11 0.0
33.5 -1.0279979212642082e-11 0.0
33.75 -8.98967694624733e-12 0.0
34.0 -6.411566799493442e-12 0.0
34.25 -7.664045145467491e-12 0.0
34.5 -6.305452627252504e-12 0.0
34.75 -8.41427157418253e-12 0.0
35.0 -8.374536727920865e-12 0.0
35.25 -1.1333346193762443e-11 0.0
35.5 -9.972205299553252e-12 0.0
35.75 -9.61972179634152e-12 0.0
36.0 -5.135797297997156e-12 0.0
36.25 -7.991335196423704e-12 0.0
36.5 -9.148133658288924e-12 0.0
36.75 -7.860835021839497e-12 0.0
37.0 -9.034599293439676e-12 0.0
37.25 -7.357905949031133e-12 0.0
37.5 -8.964823899814797e-12 0.0
37.75 -3.0987571510611717e-12 0.0
38.0 -4.385679249008078e-12 0.0
38.25 -6.987341375000663e-12 0.0
38.5 -9.693112198417243e-12 0.0
38.75 -1.0089168081551763e-11 0.0
39.0 -1.0349996151367917e-11 0.0
39.25 -8.382618708794486e-12 0.0
39.5 -7.310127698200546e-12 0.0
39.75 -7.0333787304660686e-12 0.0
40.0 -7.787955793689577e-12 0.0
