!Created with skrf (http://scikit-rf.org).
# GHz S RI R 50.0 
!freq ReS11 ImS11
0.25 -0.9993815988557071 0.0033629566312170654
0.5 -0.9995689741372247 0.002657943781469693
0.75 -1.0005748103580923 0.005278902253536902
1.0 -0.9995348210292205 0.006214330366862323
1.25 -0.9994871408213312 0.007077146855273561
1.5 -0.9992301562286398 0.008698116658933198
1.75 -0.9992953131149339 0.01052417970456885
2.0 -0.9992503850190294 0.011821699247313834
2.25 -0.9992643553764153 0.013250795623655786
2.5 -0.9989056082192389 0.014629400554495516
2.75 -0.9988585989313739 0.015065308607040907
3.0 -0.9992496881162845 0.015989779075114893
3.25 -0.9987808983479143 0.015548614949430935
3.5 -0.9998225458160402 0.015452873748381986
3.75 -1.0000425170420464 0.016137264589978474
4.0 -0.9996241395285234 0.01570548150163117
4.25 -0.9995747370540189 0.01640337353925421
4.5 -0.9997379445544489 0.01605173322627943
4.75 -0.9997481011477239 0.016602170056744088
5.0 -0.9996624799853676 0.017474097674501102
5.25 -0.9994747900735995 0.016986200855894768
5.5 -0.9997337716191463 0.01855260207768877
5.75 -0.9994871289365703 0.018398496492002422
6.0 -0.9994924880805418 0.01872685055936746
6.25 -0.9990876396126028 0.01853953123227998
6.5 -0.9994454572245969 0.018677707026105776
6.75 -0.9993920306743012 0.019048928110674632
7.0 -0.9999881898931492 0.01934630453315004
7.25 -0.9997416080024412 0.019468261894526794
7.5 -0.9997829984003386 0.019949884996516416
7.75 -0.9998453524579431 0.02072371293792406
8.0 -0.9994129793948251 0.021204801230692447
8.25 -1.0000725594086106 0.021227686213064333
8.5 -0.9999336869745102 0.021607226714596903
8.75 -0.9998044262671687 0.021923496845622184
9.0 -1.000215150724478 0.02157823082874068
9.25 -0.999566444178296 0.02212149759789693
9.5 -1.0000393486802506 0.022609078101585696
9.75 -0.9997419715099192 0.022917748818453106
10.0 -0.9998170227228949 0.02308136953621793
10.25 -0.9995449960050393 0.022655491066638552
10.5 -0.9994937993109617 0.022974374275376356
10.75 -0.9997276810709657 0.02342087346869746
11.0 -0.9997612723224987 0.023574251118045758
11.25 -0.9995097643070568 0.024280761377527334
11.5 -0.9996910570597914 0.024670710363777555
11.75 -0.9997122326981908 0.024856302893229282
12.0 -1.0001361667472637 0.024836918478170697
12.25 -0.9998305736318537 0.024831743735171784
12.5 -0.9998172861049653 0.025526338414005433
12.75 -0.9996279855541028 0.025838373319726198
13.0 -0.9992374761872629 0.025838150731306787
13.25 -0.9992663198929748 0.025855545644880944
13.5 -0.9989991395513563 0.02559392431827063
13.75 -0.9994440495209738 0.025365001464210907
14.0 -0.9992527068250237 0.0254797317097411
14.25 -0.9993270209001744 0.025503194871749124
14.5 -0.9987818756630789 0.026501646880098588
14.75 -0.9988335359949638 0.0256946638469123
15.0 -0.9995818899466721 0.02660505005602364
15.25 -0.9995307343006495 0.027171717584926848
15.5 -0.9993273269337826 0.027115482710903287
15.75 -0.9995457394312589 0.026597464975824173
16.0 -0.999918816811691 0.02721317272200216
16.25 -0.9999026696734883 0.026240505864495358
16.5 -0.9996313041793061 0.027070048471318657
16.75 -0.9996319541967986 0.028137389876703493
17.0 -0.9995723293993211 0.02755486636443415
17.25 -0.9992706276900578 0.02810132189237643
17.5 -0.9997979594415377 0.028056709887915712
17.75 -0.9997762580964012 0.028682605622802004
18.0 -0.9987765139722798 0.02906698314568103
18.25 -1.0000183225764616 0.030179068183242494
18.5 -0.9994098747603907 0.03052965453246964
18.75 -0.9996807409809871 0.029408562962275658
19.0 -0.9992507887837627 0.029617919754792575
19.25 -1.0001223764680782 0.03048804727349292
19.5 -0.9997023543019752 0.030629762630879635
19.75 -0.9989599654015211 0.03065014477401549
20.0 -0.9992383195051976 0.030121708518125807
20.25 -1.0005094073565983 0.030723016975853803
20.5 -0.9993251320526302 0.03064927827927625
20.75 -1.0003210457161942 0.030664194934125432
21.0 -1.0006168272858031 0.03077288021881016
21.25 -1.0001713238785677 0.030426484229131925
21.5 -1.0010104163904656 0.030545148268698703
21.75 -0.9997712065630663 0.03008389348049245
22.0 -1.0002654923608048 0.0317920245880104
22.25 -1.000937485927923 0.03137274504716525
22.5 -1.0005206407455662 0.0305748131976418
22.75 -1.0000412431038999 0.03165637201654953
23.0 -1.0007001889905802 0.030201795569749168
23.25 -1.0010929525480246 0.03125207752235598
23.5 -1.0008425200219968 0.03201051522750559
23.75 -1.0005290268297689 0.03235263755978345
24.0 -1.000654840007247 0.033328174277650335
24.25 -1.0005083217428064 0.03265635153350068
24.5 -1.0011101727296385 0.032806119055026096
24.75 -1.0010855430115473 0.032675483824695574
25.0 -1.0019746370327938 0.033301326478595114
25.25 -1.0014024588367645 0.03225889858677898
25.5 -1.0021085952465991 0.033105311590304845
25.75 -1.0010779483184111 0.03390973337761277
26.0 -1.0021046363085373 0.034724811827174816
26.25 -1.0020863534630207 0.03408491815560105
26.5 -1.001934711271376 0.033241937806164086
26.75 -1.0012906259312724 0.03370843048617567
27.0 -1.0026874253166609 0.03417802143660815
27.25 -1.001654516436748 0.03173199616335068
27.5 -1.0033769947148152 0.03248711909977733
27.75 -1.0023155910224444 0.032159318137426764
28.0 -1.0022814963165212 0.034467469339174446
28.25 -1.002150023822272 0.034530314371375784
28.5 -1.0052720928824703 0.03445403038123876
28.75 -1.0038357287291162 0.03521380462517819
29.0 -1.0040015203261907 0.03559180002036984
29.25 -1.0037137039732975 0.033360591787616994
29.5 -1.002778055567016 0.03482977466631592
29.75 -1.003123971778347 0.03640306907772139
30.0 -1.0044215822249556 0.03546781297275682
30.25 -1.0025210947769483 0.03548419425841095
30.5 -1.003382743568848 0.035884230305988606
30.75 -1.0049468632661047 0.033977067969271704
31.0 -1.0036607744472055 0.03835906703937375
31.25 -1.003712666790709 0.036840908052743704
31.5 -1.002830405487582 0.03672504531601444
31.75 -1.0042618983185905 0.03507722827423772
32.0 -1.002004387076728 0.03496105022389976
32.25 -1.0053543756437795 0.038380942824909677
32.5 -1.0039531068834462 0.03717669880532492
32.75 -1.0055226547218306 0.037844951901931954
33.0 -1.0015413948115355 0.03718960433765411
33.25 -1.0069800144572083 0.03598764962071057
33.5 -1.0031753516123008 0.03553367641576625
33.75 -1.0046597171988605 0.036960177428932484
34.0 -1.0014338980840776 0.038403255437415254
34.25 -1.0038624896450081 0.03799023147529491
34.5 -1.0017237249007087 0.037107583427111256
34.75 -1.0037960421166527 0.03961319179282877
35.0 -1.0031643243184354 0.03619545545731558
35.25 -1.005491699254729 0.0366466484233657
35.5 -1.0026614313399036 0.04112580654087289
35.75 -1.004692641863797 0.026562795653626094
36.0 -1.0108799065275813 0.040042264475207826
36.25 -1.0065385485290168 0.031556688044120436
36.5 -1.0109045250921709 0.030429779907350293
36.75 -1.0081931079562205 0.04142290646110373
37.0 -1.0058207373856602 0.03196377356452466
37.25 -1.0053417459006713 0.042606758743237085
37.5 -1.009353009099719 0.03773596983658741
37.75 -1.0054783560841702 0.03894543354022962
38.0 -1.002921086625783 0.040161734842007836
38.25 -1.0053919064396504 0.03693646549154459
38.5 -1.0063337125678133 0.038685629178958986
38.75 -1.0058406985009563 0.03992068799617135
39.0 -1.006873569227897 0.038674319631480575
39.25 -1.0079809921958953 0.03997216809265084
39.5 -1.0057930031893663 0.038194846132711714
39.75 -1.0072200679267798 0.035580139093723
40.0 -1.0051344103241424 0.036546774761498375
