# GHz S RI R 50
!
+2.500000000000000e-001   +0.000000000000000e+000 +0.000000000000000e+000   +9.998076673309390e-001 -1.746203377606620e-003   +9.998076673309390e-001 -1.746203377606620e-003   +0.000000000000000e+000 +0.000000000000000e+000   
+5.000000000000000e-001   +0.000000000000000e+000 +0.000000000000000e+000   +9.997240686023270e-001 -3.492125390661870e-003   +9.997240686023270e-001 -3.492125390661870e-003   +0.000000000000000e+000 +0.000000000000000e+000   
+7.500000000000000e-001   +0.000000000000000e+000 +0.000000000000000e+000   +9.996558121382360e-001 -5.237857076497640e-003   +9.996558121382360e-001 -5.237857076497640e-003   +0.000000000000000e+000 +0.000000000000000e+000   
+1.000000000000000e+000   +0.000000000000000e+000 +0.000000000000000e+000   +9.995940271444920e-001 -6.983427497983570e-003   +9.995940271444920e-001 -6.983427497983570e-003   +0.000000000000000e+000 +0.000000000000000e+000   
+1.250000000000000e+000   +0.000000000000000e+000 +0.000000000000000e+000   +9.995352777752690e-001 -8.728851205498520e-003   +9.995352777752690e-001 -8.728851205498520e-003   +0.000000000000000e+000 +0.000000000000000e+000   
+1.500000000000000e+000   +0.000000000000000e+000 +0.000000000000000e+000   +9.994778020524140e-001 -1.047413628554280e-002   +9.994778020524140e-001 -1.047413628554280e-002   +0.000000000000000e+000 +0.000000000000000e+000   
+1.750000000000000e+000   +0.000000000000000e+000 +0.000000000000000e+000   +9.994205533861820e-001 -1.221928726001830e-002   +9.994205533861820e-001 -1.221928726001830e-002   +0.000000000000000e+000 +0.000000000000000e+000   
+2.000000000000000e+000   +0.000000000000000e+000 +0.000000000000000e+000   +9.993628499549550e-001 -1.396430643454320e-002   +9.993628499549550e-001 -1.396430643454320e-002   +0.000000000000000e+000 +0.000000000000000e+000   
+2.250000000000000e+000   +0.000000000000000e+000 +0.000000000000000e+000   +9.993042182421100e-001 -1.570919462444380e-002   +9.993042182421100e-001 -1.570919462444380e-002   +0.000000000000000e+000 +0.000000000000000e+000   
+2.500000000000000e+000   +0.000000000000000e+000 +0.000000000000000e+000   +9.992443135533760e-001 -1.745395158561210e-002   +9.992443135533760e-001 -1.745395158561210e-002   +0.000000000000000e+000 +0.000000000000000e+000   
+2.750000000000000e+000   +0.000000000000000e+000 +0.000000000000000e+000   +9.991828757367880e-001 -1.919857628874760e-002   +9.991828757367880e-001 -1.919857628874760e-002   +0.000000000000000e+000 +0.000000000000000e+000   
+3.000000000000000e+000   +0.000000000000000e+000 +0.000000000000000e+000   +9.991197027399600e-001 -2.094306710341350e-002   +9.991197027399600e-001 -2.094306710341350e-002   +0.000000000000000e+000 +0.000000000000000e+000   
+3.250000000000000e+000   +0.000000000000000e+000 +0.000000000000000e+000   +9.990546339374700e-001 -2.268742192681900e-002   +9.990546339374700e-001 -2.268742192681900e-002   +0.000000000000000e+000 +0.000000000000000e+000   
+3.500000000000000e+000   +0.000000000000000e+000 +0.000000000000000e+000   +9.989875391481990e-001 -2.443163827700860e-002   +9.989875391481990e-001 -2.443163827700860e-002   +0.000000000000000e+000 +0.000000000000000e+000   
+3.750000000000000e+000   +0.000000000000000e+000 +0.000000000000000e+000   +9.989183111352450e-001 -2.617571336219560e-002   +9.989183111352450e-001 -2.617571336219560e-002   +0.000000000000000e+000 +0.000000000000000e+000   
+4.000000000000000e+000   +0.000000000000000e+000 +0.000000000000000e+000   +9.988468603268800e-001 -2.791964413356390e-002   +9.988468603268800e-001 -2.791964413356390e-002   +0.000000000000000e+000 +0.000000000000000e+000   
+4.250000000000000e+000   +0.000000000000000e+000 +0.000000000000000e+000   +9.987731110039570e-001 -2.966342732628710e-002   +9.987731110039570e-001 -2.966342732628710e-002   +0.000000000000000e+000 +0.000000000000000e+000   
+4.500000000000000e+000   +0.000000000000000e+000 +0.000000000000000e+000   +9.986969984846390e-001 -3.140705949194730e-002   +9.986969984846390e-001 -3.140705949194730e-002   +0.000000000000000e+000 +0.000000000000000e+000   
+4.750000000000000e+000   +0.000000000000000e+000 +0.000000000000000e+000   +9.986184670049980e-001 -3.315053702454080e-002   +9.986184670049980e-001 -3.315053702454080e-002   +0.000000000000000e+000 +0.000000000000000e+000   
+5.000000000000000e+000   +0.000000000000000e+000 +0.000000000000000e+000   +9.985374680961570e-001 -3.489385618161900e-002   +9.985374680961570e-001 -3.489385618161900e-002   +0.000000000000000e+000 +0.000000000000000e+000   
+5.250000000000000e+000   +0.000000000000000e+000 +0.000000000000000e+000   +9.984539593227710e-001 -3.663701310167340e-002   +9.984539593227710e-001 -3.663701310167340e-002   +0.000000000000000e+000 +0.000000000000000e+000   
+5.500000000000000e+000   +0.000000000000000e+000 +0.000000000000000e+000   +9.983679032891450e-001 -3.838000381858390e-002   +9.983679032891450e-001 -3.838000381858390e-002   +0.000000000000000e+000 +0.000000000000000e+000   
+5.750000000000000e+000   +0.000000000000000e+000 +0.000000000000000e+000   +9.982792668466910e-001 -4.012282427373940e-002   +9.982792668466910e-001 -4.012282427373940e-002   +0.000000000000000e+000 +0.000000000000000e+000   
+6.000000000000000e+000   +0.000000000000000e+000 +0.000000000000000e+000   +9.981880204550210e-001 -4.186547032629150e-002   +9.981880204550210e-001 -4.186547032629150e-002   +0.000000000000000e+000 +0.000000000000000e+000   
+6.250000000000000e+000   +0.000000000000000e+000 +0.000000000000000e+000   +9.980941376617560e-001 -4.360793776189610e-002   +9.980941376617560e-001 -4.360793776189610e-002   +0.000000000000000e+000 +0.000000000000000e+000   
+6.500000000000000e+000   +0.000000000000000e+000 +0.000000000000000e+000   +9.979975946751830e-001 -4.535022230021950e-002   +9.979975946751830e-001 -4.535022230021950e-002   +0.000000000000000e+000 +0.000000000000000e+000   
+6.750000000000000e+000   +0.000000000000000e+000 +0.000000000000000e+000   +9.978983700102460e-001 -4.709231960142390e-002   +9.978983700102460e-001 -4.709231960142390e-002   +0.000000000000000e+000 +0.000000000000000e+000   
+7.000000000000000e+000   +0.000000000000000e+000 +0.000000000000000e+000   +9.977964441930760e-001 -4.883422527180490e-002   +9.977964441930760e-001 -4.883422527180490e-002   +0.000000000000000e+000 +0.000000000000000e+000   
+7.250000000000000e+000   +0.000000000000000e+000 +0.000000000000000e+000   +9.976917995126340e-001 -5.057593486871940e-002   +9.976917995126340e-001 -5.057593486871940e-002   +0.000000000000000e+000 +0.000000000000000e+000   
+7.500000000000000e+000   +0.000000000000000e+000 +0.000000000000000e+000   +9.975844198106090e-001 -5.231744390491330e-002   +9.975844198106090e-001 -5.231744390491330e-002   +0.000000000000000e+000 +0.000000000000000e+000   
+7.750000000000000e+000   +0.000000000000000e+000 +0.000000000000000e+000   +9.974742903025950e-001 -5.405874785234290e-002   +9.974742903025950e-001 -5.405874785234290e-002   +0.000000000000000e+000 +0.000000000000000e+000   
+8.000000000000000e+000   +0.000000000000000e+000 +0.000000000000000e+000   +9.973613974250500e-001 -5.579984214556080e-002   +9.973613974250500e-001 -5.579984214556080e-002   +0.000000000000000e+000 +0.000000000000000e+000   
+8.250000000000000e+000   +0.000000000000000e+000 +0.000000000000000e+000   +9.972457287036300e-001 -5.754072218473070e-002   +9.972457287036300e-001 -5.754072218473070e-002   +0.000000000000000e+000 +0.000000000000000e+000   
+8.500000000000000e+000   +0.000000000000000e+000 +0.000000000000000e+000   +9.971272726393520e-001 -5.928138333832120e-002   +9.971272726393520e-001 -5.928138333832120e-002   +0.000000000000000e+000 +0.000000000000000e+000   
+8.750000000000000e+000   +0.000000000000000e+000 +0.000000000000000e+000   +9.970060186097340e-001 -6.102182094552120e-002   +9.970060186097340e-001 -6.102182094552120e-002   +0.000000000000000e+000 +0.000000000000000e+000   
+9.000000000000000e+000   +0.000000000000000e+000 +0.000000000000000e+000   +9.968819567825650e-001 -6.276203031841300e-002   +9.968819567825650e-001 -6.276203031841300e-002   +0.000000000000000e+000 +0.000000000000000e+000   
+9.250000000000000e+000   +0.000000000000000e+000 +0.000000000000000e+000   +9.967550780403870e-001 -6.450200674393520e-002   +9.967550780403870e-001 -6.450200674393520e-002   +0.000000000000000e+000 +0.000000000000000e+000   
+9.500000000000000e+000   +0.000000000000000e+000 +0.000000000000000e+000   +9.966253739141060e-001 -6.624174548565800e-002   +9.966253739141060e-001 -6.624174548565800e-002   +0.000000000000000e+000 +0.000000000000000e+000   
+9.750000000000000e+000   +0.000000000000000e+000 +0.000000000000000e+000   +9.964928365244240e-001 -6.798124178539700e-002   +9.964928365244240e-001 -6.798124178539700e-002   +0.000000000000000e+000 +0.000000000000000e+000   
+1.000000000000000e+001   +0.000000000000000e+000 +0.000000000000000e+000   +9.963574585299910e-001 -6.972049086468120e-002   +9.963574585299910e-001 -6.972049086468120e-002   +0.000000000000000e+000 +0.000000000000000e+000   
+1.025000000000000e+001   +0.000000000000000e+000 +0.000000000000000e+000   +9.962192330813550e-001 -7.145948792609340e-002   +9.962192330813550e-001 -7.145948792609340e-002   +0.000000000000000e+000 +0.000000000000000e+000   
+1.050000000000000e+001   +0.000000000000000e+000 +0.000000000000000e+000   +9.960781537799400e-001 -7.319822815449690e-002   +9.960781537799400e-001 -7.319822815449690e-002   +0.000000000000000e+000 +0.000000000000000e+000   
+1.075000000000000e+001   +0.000000000000000e+000 +0.000000000000000e+000   +9.959342146414020e-001 -7.493670671816030e-002   +9.959342146414020e-001 -7.493670671816030e-002   +0.000000000000000e+000 +0.000000000000000e+000   
+1.100000000000000e+001   +0.000000000000000e+000 +0.000000000000000e+000   +9.957874100627960e-001 -7.667491876979130e-002   +9.957874100627960e-001 -7.667491876979130e-002   +0.000000000000000e+000 +0.000000000000000e+000   
+1.125000000000000e+001   +0.000000000000000e+000 +0.000000000000000e+000   +9.956377347930840e-001 -7.841285944748900e-002   +9.956377347930840e-001 -7.841285944748900e-002   +0.000000000000000e+000 +0.000000000000000e+000   
+1.150000000000000e+001   +0.000000000000000e+000 +0.000000000000000e+000   +9.954851839065810e-001 -8.015052387562320e-002   +9.954851839065810e-001 -8.015052387562320e-002   +0.000000000000000e+000 +0.000000000000000e+000   
+1.175000000000000e+001   +0.000000000000000e+000 +0.000000000000000e+000   +9.953297527789860e-001 -8.188790716564700e-002   +9.953297527789860e-001 -8.188790716564700e-002   +0.000000000000000e+000 +0.000000000000000e+000   
+1.200000000000000e+001   +0.000000000000000e+000 +0.000000000000000e+000   +9.951714370656980e-001 -8.362500441685050e-002   +9.951714370656980e-001 -8.362500441685050e-002   +0.000000000000000e+000 +0.000000000000000e+000   
+1.225000000000000e+001   +0.000000000000000e+000 +0.000000000000000e+000   +9.950102326821510e-001 -8.536181071705870e-002   +9.950102326821510e-001 -8.536181071705870e-002   +0.000000000000000e+000 +0.000000000000000e+000   
+1.250000000000000e+001   +0.000000000000000e+000 +0.000000000000000e+000   +9.948461357859590e-001 -8.709832114328260e-002   +9.948461357859590e-001 -8.709832114328260e-002   +0.000000000000000e+000 +0.000000000000000e+000   
+1.275000000000000e+001   +0.000000000000000e+000 +0.000000000000000e+000   +9.946791427606470e-001 -8.883453076232360e-002   +9.946791427606470e-001 -8.883453076232360e-002   +0.000000000000000e+000 +0.000000000000000e+000   
+1.300000000000000e+001   +0.000000000000000e+000 +0.000000000000000e+000   +9.945092502008220e-001 -9.057043463133860e-002   +9.945092502008220e-001 -9.057043463133860e-002   +0.000000000000000e+000 +0.000000000000000e+000   
+1.325000000000000e+001   +0.000000000000000e+000 +0.000000000000000e+000   +9.943364548986150e-001 -9.230602779836660e-002   +9.943364548986150e-001 -9.230602779836660e-002   +0.000000000000000e+000 +0.000000000000000e+000   
+1.350000000000000e+001   +0.000000000000000e+000 +0.000000000000000e+000   +9.941607538312810e-001 -9.404130530282290e-002   +9.941607538312810e-001 -9.404130530282290e-002   +0.000000000000000e+000 +0.000000000000000e+000   
+1.375000000000000e+001   +0.000000000000000e+000 +0.000000000000000e+000   +9.939821441498100e-001 -9.577626217596070e-002   +9.939821441498100e-001 -9.577626217596070e-002   +0.000000000000000e+000 +0.000000000000000e+000   
+1.400000000000000e+001   +0.000000000000000e+000 +0.000000000000000e+000   +9.938006231684870e-001 -9.751089344130490e-002   +9.938006231684870e-001 -9.751089344130490e-002   +0.000000000000000e+000 +0.000000000000000e+000   
+1.425000000000000e+001   +0.000000000000000e+000 +0.000000000000000e+000   +9.936161883552730e-001 -9.924519411505950e-002   +9.936161883552730e-001 -9.924519411505950e-002   +0.000000000000000e+000 +0.000000000000000e+000   
+1.450000000000000e+001   +0.000000000000000e+000 +0.000000000000000e+000   +9.934288373229470e-001 -1.009791592064910e-001   +9.934288373229470e-001 -1.009791592064910e-001   +0.000000000000000e+000 +0.000000000000000e+000   
+1.475000000000000e+001   +0.000000000000000e+000 +0.000000000000000e+000   +9.932385678209370e-001 -1.027127837182880e-001   +9.932385678209370e-001 -1.027127837182880e-001   +0.000000000000000e+000 +0.000000000000000e+000   
+1.500000000000000e+001   +0.000000000000000e+000 +0.000000000000000e+000   +9.930453777277650e-001 -1.044460626469040e-001   +9.930453777277650e-001 -1.044460626469040e-001   +0.000000000000000e+000 +0.000000000000000e+000   
+1.525000000000000e+001   +0.000000000000000e+000 +0.000000000000000e+000   +9.928492650440650e-001 -1.061789909828760e-001   +9.928492650440650e-001 -1.061789909828760e-001   +0.000000000000000e+000 +0.000000000000000e+000   
+1.550000000000000e+001   +0.000000000000000e+000 +0.000000000000000e+000   +9.926502278861030e-001 -1.079115637111300e-001   +9.926502278861030e-001 -1.079115637111300e-001   +0.000000000000000e+000 +0.000000000000000e+000   
+1.575000000000000e+001   +0.000000000000000e+000 +0.000000000000000e+000   +9.924482644797810e-001 -1.096437758112660e-001   +9.924482644797810e-001 -1.096437758112660e-001   +0.000000000000000e+000 +0.000000000000000e+000   
+1.600000000000000e+001   +0.000000000000000e+000 +0.000000000000000e+000   +9.922433731550500e-001 -1.113756222578340e-001   +9.922433731550500e-001 -1.113756222578340e-001   +0.000000000000000e+000 +0.000000000000000e+000   
+1.625000000000000e+001   +0.000000000000000e+000 +0.000000000000000e+000   +9.920355523407330e-001 -1.131070980205860e-001   +9.920355523407330e-001 -1.131070980205860e-001   +0.000000000000000e+000 +0.000000000000000e+000   
+1.650000000000000e+001   +0.000000000000000e+000 +0.000000000000000e+000   +9.918248005596910e-001 -1.148381980647290e-001   +9.918248005596910e-001 -1.148381980647290e-001   +0.000000000000000e+000 +0.000000000000000e+000   
+1.675000000000000e+001   +0.000000000000000e+000 +0.000000000000000e+000   +9.916111164243250e-001 -1.165689173511490e-001   +9.916111164243250e-001 -1.165689173511490e-001   +0.000000000000000e+000 +0.000000000000000e+000   
+1.700000000000000e+001   +0.000000000000000e+000 +0.000000000000000e+000   +9.913944986323750e-001 -1.182992508366380e-001   +9.913944986323750e-001 -1.182992508366380e-001   +0.000000000000000e+000 +0.000000000000000e+000   
+1.725000000000000e+001   +0.000000000000000e+000 +0.000000000000000e+000   +9.911749459630030e-001 -1.200291934741030e-001   +9.911749459630030e-001 -1.200291934741030e-001   +0.000000000000000e+000 +0.000000000000000e+000   
+1.750000000000000e+001   +0.000000000000000e+000 +0.000000000000000e+000   +9.909524572731230e-001 -1.217587402127680e-001   +9.909524572731230e-001 -1.217587402127680e-001   +0.000000000000000e+000 +0.000000000000000e+000   
+1.775000000000000e+001   +0.000000000000000e+000 +0.000000000000000e+000   +9.907270314939670e-001 -1.234878859983610e-001   +9.907270314939670e-001 -1.234878859983610e-001   +0.000000000000000e+000 +0.000000000000000e+000   
+1.800000000000000e+001   +0.000000000000000e+000 +0.000000000000000e+000   +9.904986676278770e-001 -1.252166257733020e-001   +9.904986676278770e-001 -1.252166257733020e-001   +0.000000000000000e+000 +0.000000000000000e+000   
+1.825000000000000e+001   +0.000000000000000e+000 +0.000000000000000e+000   +9.902673647452870e-001 -1.269449544768750e-001   +9.902673647452870e-001 -1.269449544768750e-001   +0.000000000000000e+000 +0.000000000000000e+000   
+1.850000000000000e+001   +0.000000000000000e+000 +0.000000000000000e+000   +9.900331219818920e-001 -1.286728670453940e-001   +9.900331219818920e-001 -1.286728670453940e-001   +0.000000000000000e+000 +0.000000000000000e+000   
+1.875000000000000e+001   +0.000000000000000e+000 +0.000000000000000e+000   +9.897959385359930e-001 -1.304003584123660e-001   +9.897959385359930e-001 -1.304003584123660e-001   +0.000000000000000e+000 +0.000000000000000e+000   
+1.900000000000000e+001   +0.000000000000000e+000 +0.000000000000000e+000   +9.895558136659990e-001 -1.321274235086390e-001   +9.895558136659990e-001 -1.321274235086390e-001   +0.000000000000000e+000 +0.000000000000000e+000   
+1.925000000000000e+001   +0.000000000000000e+000 +0.000000000000000e+000   +9.893127466880750e-001 -1.338540572625540e-001   +9.893127466880750e-001 -1.338540572625540e-001   +0.000000000000000e+000 +0.000000000000000e+000   
+1.950000000000000e+001   +0.000000000000000e+000 +0.000000000000000e+000   +9.890667369739290e-001 -1.355802546000820e-001   +9.890667369739290e-001 -1.355802546000820e-001   +0.000000000000000e+000 +0.000000000000000e+000   
+1.975000000000000e+001   +0.000000000000000e+000 +0.000000000000000e+000   +9.888177839487250e-001 -1.373060104449570e-001   +9.888177839487250e-001 -1.373060104449570e-001   +0.000000000000000e+000 +0.000000000000000e+000   
+2.000000000000000e+001   +0.000000000000000e+000 +0.000000000000000e+000   +9.885658870891120e-001 -1.390313197188140e-001   +9.885658870891120e-001 -1.390313197188140e-001   +0.000000000000000e+000 +0.000000000000000e+000   
+2.025000000000000e+001   +0.000000000000000e+000 +0.000000000000000e+000   +9.883110459213740e-001 -1.407561773413030e-001   +9.883110459213740e-001 -1.407561773413030e-001   +0.000000000000000e+000 +0.000000000000000e+000   
+2.050000000000000e+001   +0.000000000000000e+000 +0.000000000000000e+000   +9.880532600196660e-001 -1.424805782302180e-001   +9.880532600196660e-001 -1.424805782302180e-001   +0.000000000000000e+000 +0.000000000000000e+000   
+2.075000000000000e+001   +0.000000000000000e+000 +0.000000000000000e+000   +9.877925290043640e-001 -1.442045173016060e-001   +9.877925290043640e-001 -1.442045173016060e-001   +0.000000000000000e+000 +0.000000000000000e+000   
+2.100000000000000e+001   +0.000000000000000e+000 +0.000000000000000e+000   +9.875288525404880e-001 -1.459279894698820e-001   +9.875288525404880e-001 -1.459279894698820e-001   +0.000000000000000e+000 +0.000000000000000e+000   
+2.125000000000000e+001   +0.000000000000000e+000 +0.000000000000000e+000   +9.872622303362250e-001 -1.476509896479340e-001   +9.872622303362250e-001 -1.476509896479340e-001   +0.000000000000000e+000 +0.000000000000000e+000   
+2.150000000000000e+001   +0.000000000000000e+000 +0.000000000000000e+000   +9.869926621415150e-001 -1.493735127472270e-001   +9.869926621415150e-001 -1.493735127472270e-001   +0.000000000000000e+000 +0.000000000000000e+000   
+2.175000000000000e+001   +0.000000000000000e+000 +0.000000000000000e+000   +9.867201477467230e-001 -1.510955536779060e-001   +9.867201477467230e-001 -1.510955536779060e-001   +0.000000000000000e+000 +0.000000000000000e+000   
+2.200000000000000e+001   +0.000000000000000e+000 +0.000000000000000e+000   +9.864446869813680e-001 -1.528171073488850e-001   +9.864446869813680e-001 -1.528171073488850e-001   +0.000000000000000e+000 +0.000000000000000e+000   
